hour, t(sec), V1, VAngle1, V2, VAngle2, V3, VAngle3, I1, IAngle1, I2, IAngle2, I3, IAngle3
1, 0.00000, 7284.13, -37.3035, 7278.06, -157.446, 7286.97, 82.7215, 150.543, -31.6342, 164.395, -152.585, 148.991, 89.7301
2, 0.00000, 7294.12, -37.0849, 7288.46, -157.213, 7296.93, 82.9418, 134.736, -27.6323, 147.081, -148.929, 133.264, 93.8751
3, 0.00000, 7306.25, -36.8559, 7301.21, -156.966, 7308.98, 83.1717, 118.772, -22.2818, 129.23, -143.982, 117.505, 99.3837
4, 0.00000, 7312.44, -36.7376, 7307.66, -156.839, 7315.18, 83.2915, 110.999, -18.9466, 120.471, -140.894, 109.774, 102.851
5, 0.00000, 7316.39, -36.661, 7311.79, -156.757, 7319.08, 83.3684, 106.177, -16.533, 114.996, -138.652, 105.049, 105.328
6, 0.00000, 7318.94, -36.6049, 7314.47, -156.696, 7321.68, 83.4259, 102.808, -14.6508, 111.118, -136.885, 101.668, 107.31
7, 0.00000, 7320.36, -36.5741, 7316.05, -156.661, 7323.3, 83.4597, 101.016, -13.5539, 108.938, -135.794, 99.7244, 108.563
8, 0.00000, 7314.88, -36.6333, 7310.37, -156.724, 7318.22, 83.4059, 104.797, -15.7783, 113.19, -137.845, 103.024, 106.491
9, 0.00000, 7297.45, -36.8755, 7292.16, -156.984, 7301.42, 83.1711, 121.019, -23.1058, 131.513, -144.67, 118.243, 99.1063
10, 0.00000, 7278.41, -37.1673, 7272.26, -157.298, 7282.73, 82.8824, 142.225, -29.5923, 155.069, -150.672, 138.741, 92.3541
11, 0.00000, 7261.83, -37.4213, 7255.02, -157.57, 7266.22, 82.628, 161.678, -33.8373, 176.423, -154.589, 157.91, 87.863
12, 0.00000, 7242.4, -37.7453, 7234.58, -157.919, 7246.82, 82.3041, 187.186, -37.9694, 204.359, -158.428, 183.107, 83.4977
13, 0.00000, 7217.67, -38.1559, 7208.48, -158.362, 7221.96, 81.8928, 220.345, -41.8675, 240.564, -162.077, 216.051, 79.3687
14, 0.00000, 7209.75, -38.2829, 7200.08, -158.499, 7213.83, 81.7636, 230.74, -42.8585, 251.988, -163.018, 226.598, 78.2997
15, 0.00000, 7204.01, -38.3827, 7193.98, -158.608, 7207.76, 81.6596, 238.88, -43.5785, 260.959, -163.704, 235.077, 77.5058
16, 0.00000, 7190.05, -38.6198, 7178.31, -158.867, 7193.26, 81.4188, 258.31, -45.1183, 282.56, -165.269, 254.868, 75.8469
17, 0.00000, 7199.46, -38.5072, 7188.49, -158.746, 7202.62, 81.5286, 248.783, -44.4086, 272.139, -164.56, 245.597, 76.5783
18, 0.00000, 7225.27, -38.1291, 7216.16, -158.338, 7228.47, 81.9033, 217.475, -41.6148, 237.889, -161.877, 214.711, 79.4821
19, 0.00000, 7241.67, -37.8765, 7233.47, -158.066, 7244.8, 82.1537, 196.846, -39.2861, 215.372, -159.703, 194.412, 81.8876
20, 0.00000, 7250.29, -37.7294, 7242.63, -157.907, 7253.29, 82.2985, 185.058, -37.7125, 202.471, -158.239, 182.929, 83.4929
21, 0.00000, 7257.76, -37.6095, 7250.56, -157.778, 7260.63, 82.4159, 175.51, -36.2785, 191.992, -156.906, 173.678, 84.9438
22, 0.00000, 7262.73, -37.523, 7255.79, -157.686, 7265.5, 82.5011, 168.741, -35.1557, 184.602, -155.871, 167.089, 86.0822
23, 0.00000, 7270.69, -37.3959, 7264.3, -157.547, 7273.45, 82.6277, 158.855, -33.3341, 173.578, -154.16, 157.334, 87.9516
24, 0.00000, 7285.28, -37.1527, 7279.63, -157.285, 7287.95, 82.8704, 140.466, -29.1776, 153.266, -150.315, 139.2, 92.2086
25, 0.00000, 7300.6, -36.8993, 7295.63, -157.013, 7303.07, 83.123, 122.214, -23.5713, 132.996, -145.144, 121.276, 97.9149
26, 0.00000, 7312.63, -36.693, 7308.18, -156.791, 7314.97, 83.3298, 108.447, -17.7033, 117.48, -139.699, 107.725, 103.893
27, 0.00000, 7320.37, -36.559, 7316.26, -156.647, 7322.58, 83.4634, 100.221, -13.0755, 108.079, -135.378, 99.7, 108.564
28, 0.00000, 7324.59, -36.4832, 7320.64, -156.566, 7326.75, 83.5397, 95.8974, -10.1277, 103.082, -132.611, 95.4521, 111.558
29, 0.00000, 7325.01, -36.4671, 7320.84, -156.551, 7327.26, 83.5583, 95.052, -9.48896, 102.255, -132.108, 94.4836, 112.318
30, 0.00000, 7324.36, -36.4663, 7320.22, -156.549, 7326.61, 83.5591, 95.0608, -9.50611, 102.242, -132.108, 94.4909, 112.298
31, 0.00000, 7314.27, -36.592, 7309.78, -156.685, 7316.6, 83.4328, 102.523, -14.5489, 110.892, -136.856, 101.804, 107.161
32, 0.00000, 7305.78, -36.7172, 7301.11, -156.818, 7308.48, 83.3111, 110.517, -18.696, 119.86, -140.636, 109.361, 103.075
33, 0.00000, 7308.95, -36.6835, 7304.43, -156.779, 7311.99, 83.35, 108.286, -17.5869, 117.175, -139.537, 106.803, 104.408
34, 0.00000, 7300.23, -36.799, 7295.36, -156.902, 7303.61, 83.2381, 116.045, -21.1956, 125.857, -142.884, 114.099, 100.808
35, 0.00000, 7293.7, -36.9023, 7288.64, -157.012, 7297.31, 83.1371, 123.183, -23.8919, 133.768, -145.349, 120.887, 98.0799
36, 0.00000, 7279.54, -37.1211, 7273.93, -157.246, 7283.43, 82.9206, 139.027, -28.7596, 151.279, -149.842, 136.238, 93.0558
37, 0.00000, 7257.73, -37.4777, 7251.08, -157.63, 7261.7, 82.5635, 166.198, -34.6677, 181.209, -155.33, 163.048, 86.8601
38, 0.00000, 7239.76, -37.7781, 7232.17, -157.954, 7243.68, 82.2622, 189.906, -38.3407, 207.184, -158.755, 186.588, 82.9962
39, 0.00000, 7226.43, -37.9916, 7218.14, -158.184, 7230.2, 82.0471, 207.115, -40.4597, 226.004, -160.74, 203.805, 80.7549
40, 0.00000, 7216.64, -38.1598, 7207.89, -158.365, 7220.32, 81.8777, 220.746, -41.9063, 240.774, -162.09, 217.439, 79.228
41, 0.00000, 7207.4, -38.319, 7198.02, -158.538, 7210.8, 81.7156, 233.711, -43.1278, 255.047, -163.254, 230.606, 77.9211
42, 0.00000, 7206.2, -38.3487, 7196.62, -158.572, 7209.31, 81.6823, 236.083, -43.3423, 257.822, -163.471, 233.315, 77.6656
43, 0.00000, 7199.43, -38.4601, 7189.42, -158.693, 7202.35, 81.5691, 245.221, -44.1088, 267.852, -164.201, 242.582, 76.85
44, 0.00000, 7205.29, -38.3967, 7195.53, -158.625, 7208.04, 81.6294, 239.788, -43.6703, 262.012, -163.791, 237.464, 77.2843
45, 0.00000, 7220.97, -38.1839, 7211.98, -158.396, 7223.8, 81.842, 222.062, -42.0699, 242.695, -162.284, 219.838, 78.9505
46, 0.00000, 7229, -38.0606, 7220.42, -158.263, 7231.88, 81.9654, 211.932, -41.0306, 231.665, -161.312, 209.759, 80.0317
47, 0.00000, 7244.59, -37.8202, 7236.94, -158.003, 7247.45, 82.2041, 192.398, -38.7154, 210.246, -159.14, 190.502, 82.4148
48, 0.00000, 7262.47, -37.5309, 7255.74, -157.692, 7265.24, 82.4921, 169.373, -35.2681, 185.078, -155.943, 167.793, 85.9537
49, 0.00000, 7285.5, -37.1537, 7279.84, -157.287, 7288.1, 82.8685, 140.494, -29.1864, 153.341, -150.333, 139.307, 92.1788
50, 0.00000, 7298.95, -36.9267, 7293.92, -157.042, 7301.45, 83.0957, 124.115, -24.2498, 135.112, -145.768, 123.144, 97.2246
51, 0.00000, 7310.51, -36.728, 7306, -156.828, 7312.95, 83.2956, 110.706, -18.8024, 120.003, -140.706, 109.878, 102.808
52, 0.00000, 7319.41, -36.5781, 7315.23, -156.667, 7321.75, 83.446, 101.348, -13.7773, 109.351, -136.023, 100.682, 107.929
53, 0.00000, 7324.41, -36.4904, 7320.43, -156.573, 7326.66, 83.5336, 96.2861, -10.4106, 103.515, -132.866, 95.7519, 111.331
54, 0.00000, 7322.73, -36.5, 7318.71, -156.584, 7324.97, 83.5238, 96.9078, -10.8645, 104.256, -133.307, 96.3806, 110.856
55, 0.00000, 7315.46, -36.5882, 7311.1, -156.679, 7317.88, 83.4374, 102.223, -14.3512, 110.43, -136.611, 101.446, 107.403
56, 0.00000, 7305.44, -36.7291, 7300.85, -156.829, 7308.22, 83.2996, 111.262, -19.0482, 120.578, -140.915, 110.045, 102.737
57, 0.00000, 7310.25, -36.6728, 7305.89, -156.766, 7313.24, 83.3595, 107.543, -17.2002, 116.238, -139.132, 106.154, 104.765
58, 0.00000, 7308.1, -36.6992, 7303.66, -156.793, 7311.33, 83.3364, 109.3, -18.1233, 118.146, -139.971, 107.632, 103.936
59, 0.00000, 7297.41, -36.8478, 7292.61, -156.953, 7300.85, 83.189, 119.359, -22.4769, 129.433, -144.015, 117.351, 99.4722
60, 0.00000, 7292.41, -36.9215, 7287.47, -157.031, 7295.98, 83.1162, 124.538, -24.3944, 135.128, -145.777, 122.34, 97.5107
61, 0.00000, 7286.38, -37.0195, 7281.16, -157.136, 7290.12, 83.0201, 131.541, -26.6387, 142.923, -147.859, 129.056, 95.2232
62, 0.00000, 7277.14, -37.1611, 7271.51, -157.289, 7280.87, 82.8775, 141.998, -29.5342, 154.536, -150.555, 139.408, 92.1798
63, 0.00000, 7268.84, -37.3016, 7262.79, -157.441, 7272.58, 82.7364, 152.565, -32.0005, 166.224, -152.851, 149.864, 89.595
64, 0.00000, 7258.25, -37.473, 7251.59, -157.627, 7261.85, 82.5629, 165.778, -34.5949, 180.898, -155.285, 163.104, 86.8495
65, 0.00000, 7247.42, -37.6501, 7240.17, -157.819, 7250.82, 82.3828, 179.682, -36.8826, 196.255, -157.426, 177.135, 84.4205
66, 0.00000, 7236.81, -37.8255, 7229.05, -158.009, 7239.87, 82.2023, 193.647, -38.8349, 211.601, -159.252, 191.44, 82.3266
67, 0.00000, 7229.19, -37.9595, 7220.96, -158.154, 7232.14, 82.0671, 204.382, -40.1521, 223.383, -160.487, 202.205, 80.9467
68, 0.00000, 7232.16, -37.9313, 7224.14, -158.123, 7234.98, 82.0929, 201.976, -39.8742, 220.689, -160.218, 200.024, 81.2102
69, 0.00000, 7246.83, -37.7347, 7239.45, -157.912, 7249.49, 82.2867, 185.934, -37.8196, 203.23, -158.312, 184.349, 83.302
70, 0.00000, 7253.91, -37.6339, 7246.84, -157.804, 7256.59, 82.388, 177.799, -36.6098, 194.354, -157.188, 176.244, 84.5533
71, 0.00000, 7260.9, -37.5219, 7254.18, -157.683, 7263.56, 82.4997, 168.964, -35.1855, 184.662, -155.87, 167.51, 86.0159
72, 0.00000, 7277.99, -37.2508, 7272.06, -157.391, 7280.58, 82.7706, 148.003, -31.0165, 161.632, -152.021, 146.789, 90.2889
73, 0.00000, 7294.17, -36.99, 7289, -157.11, 7296.77, 83.0332, 128.745, -25.7956, 140.226, -147.183, 127.636, 95.6696
74, 0.00000, 7310.1, -36.7309, 7305.36, -156.834, 7312.52, 83.2935, 110.932, -18.9072, 120.456, -140.881, 110.062, 102.719
75, 0.00000, 7319.97, -36.566, 7315.65, -156.656, 7322.26, 83.4584, 100.648, -13.3438, 108.692, -135.692, 99.994, 108.372
76, 0.00000, 7325.2, -36.475, 7321.08, -156.558, 7327.5, 83.5509, 95.4401, -9.7889, 102.646, -132.35, 94.8291, 112.036
77, 0.00000, 7329.78, -36.3936, 7325.83, -156.471, 7331.93, 83.6315, 91.1257, -6.29449, 97.5979, -129.062, 90.6891, 115.526
78, 0.00000, 7331.17, -36.3638, 7327.3, -156.439, 7333.32, 83.6617, 89.663, -4.93901, 95.8577, -127.769, 89.2487, 116.916
79, 0.00000, 7330.01, -36.3684, 7326.09, -156.444, 7332.16, 83.6571, 89.944, -5.23358, 96.2071, -128.066, 89.5219, 116.616
80, 0.00000, 7327.18, -36.3992, 7323.3, -156.475, 7329.73, 83.6309, 91.5882, -6.72674, 97.9852, -129.366, 90.84, 115.358
81, 0.00000, 7314.15, -36.5762, 7309.88, -156.664, 7317.12, 83.4576, 101.723, -13.9965, 109.676, -136.178, 100.409, 108.105
82, 0.00000, 7292.88, -36.9033, 7287.78, -157.015, 7296.23, 83.1325, 123.304, -23.9293, 134.01, -145.415, 121.293, 97.9327
83, 0.00000, 7271.33, -37.2527, 7265.32, -157.389, 7275.01, 82.7852, 148.906, -31.1879, 162.298, -152.117, 146.279, 90.437
84, 0.00000, 7247.42, -37.6409, 7240.19, -157.807, 7251.26, 82.3987, 179.058, -36.7839, 195.415, -157.315, 175.921, 84.6159
85, 0.00000, 7231.72, -37.9022, 7223.65, -158.089, 7235.52, 82.137, 199.916, -39.6164, 218.228, -159.959, 196.625, 81.6432
86, 0.00000, 7219.81, -38.1093, 7211.11, -158.311, 7223.67, 81.9312, 216.628, -41.489, 236.356, -161.705, 213.088, 79.6926
87, 0.00000, 7207.29, -38.3138, 7197.86, -158.531, 7211.07, 81.7269, 233.342, -43.0916, 254.577, -163.216, 229.689, 78.0083
88, 0.00000, 7199.26, -38.4577, 7189.27, -158.687, 7202.88, 81.5819, 245.091, -44.0955, 267.443, -164.171, 241.488, 76.9425
89, 0.00000, 7198.31, -38.4908, 7187.63, -158.725, 7201.68, 81.547, 247.675, -44.3092, 270.62, -164.445, 244.293, 76.6984
90, 0.00000, 7193.65, -38.5703, 7182.25, -158.814, 7196.55, 81.4625, 254.165, -44.8139, 278.042, -164.978, 251.272, 76.1274
91, 0.00000, 7200.49, -38.49, 7189.8, -158.727, 7203.43, 81.5415, 247.356, -44.2964, 270.456, -164.443, 244.556, 76.666
92, 0.00000, 7207.4, -38.3956, 7197.69, -158.623, 7210.25, 81.6319, 239.477, -43.6564, 261.601, -163.771, 237.024, 77.3111
93, 0.00000, 7223.67, -38.1648, 7214.74, -158.375, 7226.49, 81.8608, 220.307, -41.9049, 240.808, -162.131, 218.128, 79.1193
94, 0.00000, 7236.66, -37.9559, 7228.44, -158.151, 7239.32, 82.0663, 203.265, -40.0639, 222.302, -160.417, 201.496, 80.9947
95, 0.00000, 7252.05, -37.7036, 7244.77, -157.878, 7254.73, 82.318, 182.981, -37.4165, 200.027, -157.941, 181.408, 83.721
96, 0.00000, 7265.94, -37.474, 7259.39, -157.631, 7268.55, 82.5467, 164.899, -34.4785, 180.214, -155.218, 163.561, 86.7297
97, 0.00000, 7286.12, -37.1414, 7280.52, -157.273, 7288.64, 82.8796, 139.591, -28.949, 152.327, -150.111, 138.512, 92.3956
98, 0.00000, 7302.93, -36.867, 7297.91, -156.979, 7305.38, 83.1559, 119.929, -22.7203, 130.554, -144.394, 118.997, 98.7941
99, 0.00000, 7314, -36.6727, 7309.48, -156.77, 7316.36, 83.351, 107.131, -17.0331, 116.082, -139.117, 106.378, 104.604
100, 0.00000, 7321.36, -36.5442, 7317.13, -156.632, 7323.66, 83.4805, 99.3364, -12.5067, 107.148, -134.892, 98.6961, 109.232
101, 0.00000, 7326.5, -36.4556, 7322.45, -156.537, 7328.72, 83.5693, 94.3556, -8.96495, 101.383, -131.576, 93.8301, 112.826
102, 0.00000, 7327.16, -36.4351, 7323.15, -156.515, 7329.46, 83.5914, 93.3035, -8.12031, 100.124, -130.761, 92.7211, 113.753
103, 0.00000, 7322.44, -36.487, 7318.22, -156.571, 7324.92, 83.5415, 96.252, -10.4236, 103.587, -132.955, 95.458, 111.513
104, 0.00000, 7314.47, -36.59, 7309.92, -156.68, 7317.46, 83.4448, 102.417, -14.4696, 110.64, -136.718, 101.024, 107.659
105, 0.00000, 7315.71, -36.5806, 7311.07, -156.67, 7319.11, 83.4612, 101.833, -14.05, 109.981, -136.316, 100.001, 108.382
106, 0.00000, 7310.22, -36.6536, 7305.33, -156.747, 7313.93, 83.392, 106.432, -16.6855, 115.201, -138.768, 104.172, 105.793
107, 0.00000, 7291.67, -36.9283, 7286.04, -157.043, 7295.62, 83.1185, 125.015, -24.5249, 136.164, -146.039, 122.143, 97.6127
108, 0.00000, 7268.51, -37.3037, 7261.84, -157.447, 7272.61, 82.7427, 152.732, -32.0308, 166.854, -152.963, 149.359, 89.7113
109, 0.00000, 7246.49, -37.6637, 7238.72, -157.835, 7250.66, 82.3829, 180.795, -37.0451, 197.67, -157.606, 177.055, 84.4315
110, 0.00000, 7224.06, -38.034, 7215.06, -158.234, 7228.05, 82.0108, 210.52, -40.8354, 230.202, -161.142, 206.681, 80.4156
111, 0.00000, 7211.72, -38.2472, 7202.03, -158.464, 7215.6, 81.7969, 227.833, -42.5881, 249.038, -162.781, 223.935, 78.5629
112, 0.00000, 7198.73, -38.4693, 7187.75, -158.704, 7202.44, 81.5752, 245.984, -44.1658, 269.039, -164.329, 242.011, 76.896
113, 0.00000, 7191.68, -38.587, 7179.87, -158.833, 7195.07, 81.4548, 255.659, -44.9187, 279.827, -165.091, 251.951, 76.0771
114, 0.00000, 7183.89, -38.7263, 7170.92, -158.986, 7186.76, 81.3109, 267.045, -45.7415, 292.612, -165.946, 263.807, 75.1729
115, 0.00000, 7181.97, -38.7785, 7168.23, -159.045, 7184.52, 81.2559, 271.206, -46.0325, 297.465, -166.29, 268.289, 74.8441
116, 0.00000, 7190.3, -38.674, 7177.75, -158.931, 7192.66, 81.3543, 262.376, -45.4343, 287.56, -165.651, 259.968, 75.4402
117, 0.00000, 7202.53, -38.5023, 7191.75, -158.742, 7205.03, 81.523, 248.05, -44.3682, 271.422, -164.524, 245.839, 76.5451
118, 0.00000, 7206.27, -38.4388, 7196.03, -158.673, 7208.82, 81.5858, 242.813, -43.9439, 265.58, -164.091, 240.654, 76.9854
119, 0.00000, 7222.22, -38.1988, 7213.1, -158.413, 7224.82, 81.824, 222.971, -42.1715, 243.861, -162.394, 221.036, 78.8172
120, 0.00000, 7239.67, -37.9172, 7231.66, -158.109, 7242.27, 82.1037, 200.023, -39.6814, 218.715, -160.055, 198.387, 81.3769
121, 0.00000, 7264.97, -37.4976, 7258.34, -157.656, 7267.68, 82.5245, 166.655, -34.7961, 182.115, -155.508, 165.178, 86.4257
122, 0.00000, 7282.89, -37.1995, 7276.92, -157.337, 7285.58, 82.8246, 143.855, -30.0357, 157.196, -151.146, 142.48, 91.3458
123, 0.00000, 7295.5, -36.9866, 7290.14, -157.108, 7298.08, 83.0373, 128.323, -25.6636, 139.936, -147.11, 127.178, 95.8187
124, 0.00000, 7301.93, -36.8713, 7296.85, -156.984, 7304.53, 83.154, 120.29, -22.8538, 130.969, -144.521, 119.17, 98.7279
125, 0.00000, 7307.24, -36.7811, 7302.36, -156.888, 7309.72, 83.2436, 114.195, -20.3785, 124.151, -142.245, 113.232, 101.234
126, 0.00000, 7310.61, -36.7171, 7305.88, -156.819, 7313.1, 83.3086, 110.048, -18.4837, 119.449, -140.485, 109.097, 103.198
127, 0.00000, 7307.59, -36.7463, 7302.67, -156.851, 7310.04, 83.2787, 112.055, -19.4358, 121.832, -141.414, 111.122, 102.2
128, 0.00000, 7303.06, -36.8015, 7297.89, -156.912, 7305.59, 83.2246, 115.835, -21.0924, 126.17, -142.972, 114.753, 100.545
129, 0.00000, 7298.52, -36.8625, 7293.09, -156.977, 7301.33, 83.1675, 120.079, -22.7804, 130.953, -144.531, 118.62, 98.9369
130, 0.00000, 7282.84, -37.0937, 7276.76, -157.226, 7285.92, 82.9388, 136.72, -28.1399, 149.506, -149.45, 134.78, 93.4724
131, 0.00000, 7264.57, -37.3817, 7257.66, -157.536, 7267.79, 82.6514, 158.537, -33.2322, 173.578, -154.128, 156.242, 88.209
132, 0.00000, 7242.14, -37.7459, 7234.06, -157.928, 7245.35, 82.2867, 187.196, -37.9701, 205.057, -158.509, 184.651, 83.2772
133, 0.00000, 7224, -38.0492, 7214.9, -158.255, 7227.11, 81.9829, 211.602, -40.9585, 231.751, -161.29, 208.922, 80.1577
134, 0.00000, 7206.92, -38.3281, 7196.91, -158.555, 7210.05, 81.7056, 234.393, -43.1854, 256.484, -163.365, 231.434, 77.8454
135, 0.00000, 7204.72, -38.3718, 7194.57, -158.601, 7207.84, 81.6618, 237.962, -43.5028, 260.357, -163.662, 234.987, 77.5137
136, 0.00000, 7204.49, -38.3877, 7194.25, -158.619, 7207.51, 81.6448, 239.175, -43.6088, 261.741, -163.766, 236.306, 77.3932
137, 0.00000, 7209.64, -38.3286, 7199.67, -158.555, 7212.65, 81.7033, 234.143, -43.1755, 256.227, -163.354, 231.351, 77.842
138, 0.00000, 7209.82, -38.3288, 7199.91, -158.555, 7212.84, 81.7028, 234.156, -43.183, 256.176, -163.357, 231.388, 77.833
139, 0.00000, 7209.42, -38.3367, 7199.65, -158.561, 7212.46, 81.6944, 234.793, -43.2412, 256.694, -163.398, 232.05, 77.7703
140, 0.00000, 7223.11, -38.1499, 7214.15, -158.36, 7226.04, 81.8775, 219.25, -41.7898, 239.699, -162.028, 216.91, 79.2548
141, 0.00000, 7233.19, -37.9988, 7224.77, -158.197, 7235.99, 82.026, 206.851, -40.4712, 226.208, -160.797, 204.823, 80.5995
142, 0.00000, 7240.53, -37.8815, 7232.53, -158.071, 7243.23, 82.1413, 197.327, -39.3419, 215.837, -159.747, 195.543, 81.7471
143, 0.00000, 7247.82, -37.7646, 7240.33, -157.945, 7250.38, 82.2555, 187.908, -38.11, 205.466, -158.591, 186.436, 82.9861
144, 0.00000, 7261.7, -37.545, 7254.92, -157.709, 7264.16, 82.4733, 170.462, -35.4532, 186.382, -156.13, 169.286, 85.6921
145, 0.00000, 7279.46, -37.2548, 7273.58, -157.395, 7281.95, 82.7649, 148.067, -31.0396, 161.687, -152.039, 146.991, 90.2337
146, 0.00000, 7294.99, -36.9966, 7289.66, -157.119, 7297.47, 83.0255, 129.045, -25.8957, 140.728, -147.321, 128.029, 95.5361
147, 0.00000, 7305.46, -36.8123, 7300.64, -156.92, 7307.87, 83.2104, 116.281, -21.2667, 126.4, -143.031, 115.421, 100.269
148, 0.00000, 7312.78, -36.6856, 7308.26, -156.784, 7315.16, 83.3382, 107.999, -17.4759, 117.034, -139.514, 107.222, 104.157
149, 0.00000, 7316.32, -36.6199, 7311.96, -156.713, 7318.72, 83.4051, 103.926, -15.2911, 112.37, -137.469, 103.154, 106.421
150, 0.00000, 7318.8, -36.577, 7314.51, -156.667, 7321.27, 83.4497, 101.351, -13.7503, 109.428, -136.03, 100.522, 108.061
151, 0.00000, 7318.25, -36.5735, 7313.87, -156.663, 7320.86, 83.4556, 101.204, -13.6826, 109.288, -135.988, 100.222, 108.228
152, 0.00000, 7315.07, -36.6081, 7310.53, -156.7, 7317.9, 83.4241, 103.39, -15.0012, 111.784, -137.218, 102.142, 107.007
153, 0.00000, 7302.61, -36.7771, 7297.51, -156.884, 7305.6, 83.2561, 114.414, -20.4606, 124.433, -142.336, 112.83, 101.424
154, 0.00000, 7288.45, -36.9916, 7282.77, -157.114, 7291.66, 83.043, 129.412, -25.9783, 141.219, -147.42, 127.41, 95.766
155, 0.00000, 7278.7, -37.1487, 7272.54, -157.284, 7281.94, 82.8853, 140.927, -29.2603, 154.051, -150.454, 138.782, 92.3504
156, 0.00000, 7270.05, -37.2826, 7263.49, -157.428, 7273.29, 82.7509, 151.053, -31.671, 165.259, -152.677, 148.814, 89.838
157, 0.00000, 7263.53, -37.3902, 7256.64, -157.544, 7266.79, 82.6431, 159.292, -33.38, 174.352, -154.255, 156.966, 88.0604
158, 0.00000, 7258.92, -37.4713, 7251.82, -157.63, 7262.33, 82.5639, 165.556, -34.5565, 181.154, -155.328, 162.984, 86.8706
159, 0.00000, 7257.62, -37.4991, 7250.42, -157.66, 7261.13, 82.5375, 167.695, -34.9424, 183.485, -155.683, 164.975, 86.4915
160, 0.00000, 7246.16, -37.6803, 7238.39, -157.855, 7249.63, 82.3558, 181.986, -37.2269, 199.167, -157.798, 179.171, 84.0986
