hour, t(sec), P1 (kW), Q1 (kvar), P2 (kW), Q2 (kvar), P3 (kW), Q3 (kvar)
1, 0.00000, 1148.3, -99.9093, 1126.79, -49.5732, 1094.31, -92.9903
2, 0.00000, 1020.79, -157.011, 999.835, -111.395, 971.136, -152.072
3, 0.00000, 884.246, -217.015, 864.62, -177.306, 840.323, -213.97
4, 0.00000, 813.833, -247.773, 794.329, -210.919, 772.422, -246.093
5, 0.00000, 768.182, -267.653, 749.083, -232.655, 728.566, -266.576
6, 0.00000, 734.951, -281.944, 715.663, -248.375, 696.469, -281.765
7, 0.00000, 716.066, -289.901, 696.017, -257.605, 678.302, -291.034
8, 0.00000, 753.193, -273.224, 730.684, -239.56, 713.038, -275.795
9, 0.00000, 901.836, -208.334, 874.653, -168.141, 853.769, -211.612
10, 0.00000, 1079.02, -130.095, 1048.54, -82.3412, 1022.84, -132.322
11, 0.00000, 1232.23, -61.4552, 1200.16, -7.39596, 1169.87, -61.7788
12, 0.00000, 1426.41, 26.4553, 1391.78, 89.0489, 1355.47, 28.3787
13, 0.00000, 1671.38, 139.268, 1633.53, 212.974, 1589.34, 144.266
14, 0.00000, 1747.33, 174.488, 1709.14, 251.986, 1661.86, 181.192
15, 0.00000, 1806.74, 202.116, 1769.14, 282.641, 1718.95, 210.946
16, 0.00000, 1948.91, 269.59, 1908.58, 358.069, 1852.96, 280.264
17, 0.00000, 1880.77, 236.95, 1843.31, 322.074, 1789.09, 248.332
18, 0.00000, 1653.68, 130.194, 1622.02, 204.262, 1574.32, 140.744
19, 0.00000, 1501.88, 60.0468, 1473.27, 127.112, 1430.04, 69.541
20, 0.00000, 1413.69, 19.6809, 1387.28, 82.6386, 1346.45, 28.9351
21, 0.00000, 1341.44, -13.148, 1317.05, 46.3996, 1278.12, -3.93005
22, 0.00000, 1289.85, -36.5842, 1266.62, 20.7555, 1228.99, -27.5147
23, 0.00000, 1212.67, -70.9402, 1190.91, -17.6813, 1156.05, -62.7168
24, 0.00000, 1066.34, -136.175, 1046.62, -89.4277, 1016.33, -129.56
25, 0.00000, 913.594, -203.718, 895.931, -163.388, 870.107, -198.638
26, 0.00000, 789.162, -258.08, 772.737, -222.966, 750.77, -254.61
27, 0.00000, 708.351, -293.147, 692.939, -261.352, 673.314, -290.5
28, 0.00000, 662.761, -312.881, 647.64, -282.874, 629.404, -310.897
29, 0.00000, 654.406, -317.037, 637.962, -286.407, 619.856, -315.893
30, 0.00000, 654.358, -316.828, 637.992, -286.324, 619.955, -315.679
31, 0.00000, 732.661, -282.02, 715.587, -248.296, 695.139, -279.838
32, 0.00000, 808.186, -249.562, 789.235, -213.263, 767.526, -247.684
33, 0.00000, 786.403, -258.926, 765.861, -224.051, 746.182, -259.16
34, 0.00000, 857.548, -226.657, 834.757, -189.057, 813.876, -227.445
35, 0.00000, 919.567, -199.945, 895.378, -160.027, 873.217, -200.75
36, 0.00000, 1051.63, -141.496, 1025.19, -96.2834, 999.624, -141.515
37, 0.00000, 1266.24, -45.681, 1237.31, 8.86652, 1205, -43.0047
38, 0.00000, 1445.99, 35.7803, 1415.02, 98.3583, 1376.86, 40.8989
39, 0.00000, 1573.64, 94.2919, 1541.52, 162.704, 1498.93, 101.478
40, 0.00000, 1673.14, 140.623, 1640.2, 213.2, 1594.46, 149.302
41, 0.00000, 1768.05, 184.601, 1734.62, 262.036, 1684.95, 195.437
42, 0.00000, 1786.18, 192.752, 1753.65, 271.64, 1702.26, 205.129
43, 0.00000, 1852.41, 223.674, 1819.46, 305.906, 1765.41, 237.46
44, 0.00000, 1814.06, 205.496, 1782.86, 286.113, 1729.3, 219.944
45, 0.00000, 1686.1, 145.69, 1656.92, 220.318, 1607.48, 158.704
46, 0.00000, 1612.2, 111.328, 1584.02, 182.615, 1536.94, 123.45
47, 0.00000, 1467.49, 44.9104, 1442.19, 109.194, 1399.65, 55.8452
48, 0.00000, 1293.74, -34.2449, 1271.25, 22.3597, 1233.89, -24.8965
49, 0.00000, 1066.82, -136.082, 1047.4, -89.1683, 1016.81, -129.121
50, 0.00000, 929.983, -196.496, 912.135, -155.51, 885.841, -191.238
51, 0.00000, 810.136, -248.833, 793.211, -212.994, 770.875, -245.425
52, 0.00000, 719.695, -288.169, 703.484, -255.961, 683.907, -286.004
53, 0.00000, 666.87, -311.066, 651.232, -280.943, 633.158, -309.472
54, 0.00000, 673.656, -308.006, 658.033, -277.521, 639.64, -306.215
55, 0.00000, 728.951, -283.575, 711.809, -250.555, 692.003, -281.809
56, 0.00000, 814.463, -246.481, 795.468, -210.487, 774.045, -244.794
57, 0.00000, 778.827, -262.124, 759.049, -228.059, 739.681, -262.106
58, 0.00000, 795.183, -254.182, 773.978, -219.711, 754.983, -255.195
59, 0.00000, 885.997, -214.488, 863.392, -176.348, 841.957, -214.83
60, 0.00000, 930.574, -194.299, 907.204, -154.662, 884.873, -194.529
61, 0.00000, 989.71, -168.687, 964.949, -126.454, 941.094, -168.785
62, 0.00000, 1075.63, -130.738, 1050.2, -84.7357, 1023.44, -129.467
63, 0.00000, 1160.15, -93.2397, 1133.86, -43.462, 1104.3, -90.7532
64, 0.00000, 1263.75, -47.1697, 1236.78, 7.67267, 1203.22, -42.6351
65, 0.00000, 1370.31, 0.699151, 1343, 60.6285, 1305.24, 7.58812
66, 0.00000, 1475.38, 48.3982, 1448.62, 113.157, 1406.43, 58.3036
67, 0.00000, 1555.3, 84.9614, 1527.78, 153.531, 1482.69, 96.2223
68, 0.00000, 1537.46, 76.8479, 1511.31, 144.267, 1466.52, 88.694
69, 0.00000, 1418.83, 22.4692, 1395.3, 84.6798, 1353.64, 33.8562
70, 0.00000, 1357.73, -5.7774, 1334.86, 53.822, 1295.11, 4.80701
71, 0.00000, 1290.41, -35.8402, 1268.48, 20.711, 1230.88, -26.0324
72, 0.00000, 1126.98, -109.242, 1107.16, -59.7742, 1074.57, -101.297
73, 0.00000, 969.08, -179.095, 950.541, -136.637, 923.332, -173.675
74, 0.00000, 813.273, -248.022, 795.658, -211.096, 772.734, -244.662
75, 0.00000, 713.421, -291.329, 696.893, -258.629, 677.052, -289.195
76, 0.00000, 658.369, -315.108, 641.858, -284.631, 623.919, -314.097
77, 0.00000, 609.457, -336.217, 593.726, -307.617, 577.005, -335.489
78, 0.00000, 591.664, -343.989, 575.958, -316.097, 559.834, -343.601
79, 0.00000, 595.35, -342.135, 579.548, -314.01, 563.271, -341.712
80, 0.00000, 613.903, -333.312, 596.343, -305.235, 580.995, -334.439
81, 0.00000, 722.391, -286.256, 702.433, -254.055, 684.754, -287.356
82, 0.00000, 921.05, -199.599, 898.162, -159.282, 874.999, -199.069
83, 0.00000, 1131.6, -106.238, 1105.57, -57.2714, 1076.58, -103.961
84, 0.00000, 1364.77, -1.43352, 1335.07, 57.8683, 1299.07, 3.05361
85, 0.00000, 1520.84, 69.7825, 1489.14, 136.127, 1448.11, 76.2378
86, 0.00000, 1643.41, 126.649, 1609.59, 198.218, 1565.17, 134.026
87, 0.00000, 1764.97, 183.309, 1729.26, 260.525, 1680.95, 192.042
88, 0.00000, 1850.21, 223.264, 1813.53, 304.689, 1762.1, 233.391
89, 0.00000, 1870.95, 232.958, 1833.37, 316.514, 1780.57, 243.413
90, 0.00000, 1919.36, 255.567, 1881.93, 342.474, 1826.16, 267.931
91, 0.00000, 1869.94, 232.124, 1834.62, 316.135, 1780.26, 244.783
92, 0.00000, 1811.92, 204.768, 1780.35, 285.042, 1727.28, 218.705
93, 0.00000, 1673.73, 139.909, 1644.84, 214.049, 1595.66, 152.916
94, 0.00000, 1549.06, 81.9415, 1523.18, 150.578, 1477.2, 94.6559
95, 0.00000, 1397.32, 12.6423, 1373.97, 73.9781, 1332.97, 23.7191
96, 0.00000, 1259.53, -49.8171, 1238.34, 5.37696, 1201.53, -40.0842
97, 0.00000, 1059.39, -139.353, 1040.57, -92.861, 1010.03, -132.087
98, 0.00000, 894.288, -212.536, 876.419, -172.474, 850.929, -207.779
99, 0.00000, 777.206, -263.582, 760.345, -228.455, 738.587, -260.489
100, 0.00000, 699.757, -297.152, 683.334, -265.158, 664.047, -295.287
101, 0.00000, 646.431, -320.281, 630.406, -290.301, 612.649, -319.103
102, 0.00000, 634.328, -325.463, 617.885, -296.049, 600.824, -324.938
103, 0.00000, 667.275, -310.691, 649.544, -279.775, 631.841, -310.52
104, 0.00000, 730.769, -282.613, 709.851, -249.198, 691.611, -283.933
105, 0.00000, 724.598, -286.137, 700.966, -252.628, 684.015, -289.773
106, 0.00000, 769.72, -265.854, 744.044, -230.517, 726.558, -270.329
107, 0.00000, 937.009, -193.294, 909.064, -150.794, 886.584, -196.05
108, 0.00000, 1163.52, -92.8974, 1133.05, -40.8332, 1103.65, -92.8868
109, 0.00000, 1379.58, 4.40085, 1346.25, 65.9986, 1310.13, 6.91622
110, 0.00000, 1600.87, 105.679, 1565.1, 177.389, 1521.55, 111.406
111, 0.00000, 1727.18, 164.514, 1689.87, 241.836, 1642.29, 171.886
112, 0.00000, 1859.73, 226.939, 1819.15, 311.155, 1767.33, 235.123
113, 0.00000, 1930.53, 260.451, 1888.98, 348.735, 1834.16, 269.953
114, 0.00000, 2014.11, 300.362, 1971.51, 393.687, 1912.89, 311.627
115, 0.00000, 2045.83, 315.775, 2002.42, 411.505, 1942.14, 327.624
116, 0.00000, 1981.68, 284.895, 1943.29, 376.561, 1883.92, 298.936
117, 0.00000, 1876.49, 234.854, 1843.29, 319.767, 1787.06, 249.83
118, 0.00000, 1838, 216.616, 1806.27, 299.257, 1751.24, 231.667
119, 0.00000, 1693.95, 148.994, 1665.62, 224.546, 1614.94, 163.229
120, 0.00000, 1524.98, 70.9599, 1500.05, 138.271, 1454.72, 83.8019
121, 0.00000, 1273.01, -43.6765, 1251.13, 12.0546, 1214.21, -34.2668
122, 0.00000, 1094.68, -124.067, 1073.92, -75.3076, 1042.42, -117.319
123, 0.00000, 966.545, -180.754, 947.437, -137.603, 919.919, -175.479
124, 0.00000, 897.413, -211.168, 878.512, -170.83, 853.306, -207.167
125, 0.00000, 843.236, -235.015, 825.121, -196.798, 801.34, -231.425
126, 0.00000, 804.959, -251.643, 786.893, -215.033, 764.468, -248.839
127, 0.00000, 824.112, -243.33, 805.888, -205.437, 782.439, -240.007
128, 0.00000, 858.744, -228.201, 839.536, -188.503, 815.032, -224.809
129, 0.00000, 896.348, -211.718, 875.076, -170.242, 850.089, -209.205
130, 0.00000, 1036.79, -150.173, 1012.99, -102.662, 984.104, -146.735
131, 0.00000, 1210.73, -72.632, 1184.56, -17.6594, 1150.47, -67.3637
132, 0.00000, 1429.59, 26.2134, 1400.64, 91.0517, 1359.49, 34.2301
133, 0.00000, 1610.64, 109.318, 1579.29, 182.47, 1532.23, 119.633
134, 0.00000, 1776.07, 186.663, 1741.8, 267.064, 1690, 198.295
135, 0.00000, 1801.89, 198.979, 1767.25, 280.512, 1714.67, 210.886
136, 0.00000, 1811.09, 203.115, 1776.68, 285.283, 1723.44, 215.568
137, 0.00000, 1774.92, 186.07, 1741.41, 266.417, 1689.27, 198.332
138, 0.00000, 1774.77, 186.336, 1741.47, 266.406, 1689.46, 198.643
139, 0.00000, 1778.61, 188.588, 1745.73, 268.157, 1693.94, 201.004
140, 0.00000, 1665.91, 136.109, 1636.29, 210.118, 1587.6, 148.411
141, 0.00000, 1575.31, 94.0469, 1548.01, 163.941, 1501.67, 106.186
142, 0.00000, 1505.04, 61.5967, 1479.5, 128.329, 1434.98, 73.5963
143, 0.00000, 1434.47, 29.4412, 1411.18, 92.5949, 1368.59, 41.5155
144, 0.00000, 1302.61, -30.5308, 1281.74, 26.7389, 1242.97, -19.4326
145, 0.00000, 1127.66, -108.946, 1108.54, -59.5827, 1075.69, -100.445
146, 0.00000, 972.6, -178.05, 954.172, -134.765, 926.194, -172.112
147, 0.00000, 861.547, -226.691, 844.221, -188.255, 819.854, -222.298
148, 0.00000, 785.233, -259.967, 768.334, -224.669, 746.449, -256.818
149, 0.00000, 745.709, -277.075, 728.795, -243.455, 708.36, -274.8
150, 0.00000, 719.924, -288.536, 702.547, -255.843, 683.141, -287.143
151, 0.00000, 718.686, -288.847, 700.237, -255.954, 681.2, -288.284
152, 0.00000, 740.517, -279.029, 720.57, -245.183, 701.47, -279.282
153, 0.00000, 844.884, -234.064, 823.232, -195.26, 800.735, -233.255
154, 0.00000, 975.193, -176.91, 951.513, -132.633, 925.345, -175.037
155, 0.00000, 1070.43, -134.927, 1045.77, -86.4012, 1016.45, -131.706
156, 0.00000, 1151.54, -98.8538, 1126.08, -46.7616, 1094.1, -94.4726
157, 0.00000, 1216.28, -69.9517, 1190.04, -14.9591, 1155.97, -64.7311
158, 0.00000, 1264.45, -48.1044, 1236.94, 8.74348, 1201.92, -43.0196
159, 0.00000, 1280.9, -40.543, 1252.61, 17.0048, 1217.39, -35.7727
160, 0.00000, 1389.57, 8.47777, 1360.08, 70.9074, 1321.28, 14.7575
161, 0.00000, 1512.59, 64.7416, 1481.74, 132.557, 1439.01, 72.6827
162, 0.00000, 1666.05, 135.604, 1634.48, 210.344, 1586.17, 146.59
163, 0.00000, 1672.91, 138.875, 1642.33, 213.836, 1593.31, 150.838
164, 0.00000, 1663.64, 134.711, 1634.96, 208.818, 1585.7, 147.883
165, 0.00000, 1573.33, 93.19, 1546.04, 162.824, 1499.92, 105.201
166, 0.00000, 1485.23, 52.5882, 1459.54, 118.317, 1415.96, 63.937
167, 0.00000, 1397.53, 12.6469, 1374.1, 74.121, 1333.03, 23.7247
168, 0.00000, 1224.27, -65.6563, 1203.64, -12.0335, 1167.89, -56.2557
169, 0.00000, 1041.51, -147.32, 1023.09, -101.529, 992.951, -140.076
170, 0.00000, 890.631, -214.096, 873.176, -174.244, 847.656, -209.086
171, 0.00000, 795.885, -255.497, 779.389, -219.577, 756.764, -251.679
172, 0.00000, 705.016, -294.878, 688.822, -262.693, 669.255, -292.715
173, 0.00000, 654.511, -316.67, 638.722, -286.573, 620.745, -315.224
174, 0.00000, 634.702, -325.306, 618.42, -296.033, 601.4, -324.711
175, 0.00000, 624.889, -329.448, 607.648, -300.346, 591.258, -329.777
176, 0.00000, 682.549, -303.628, 663.188, -272.149, 645.825, -304.586
177, 0.00000, 807.762, -249.914, 784.899, -213.054, 764.685, -251.157
178, 0.00000, 975.828, -176.134, 949.492, -132.327, 925.076, -176.811
179, 0.00000, 1108.28, -117.424, 1079.41, -67.9606, 1051.42, -117.372
180, 0.00000, 1304.47, -29.4548, 1273.41, 28.4646, 1239.29, -26.8838
181, 0.00000, 1560.72, 87.4367, 1526.35, 156.833, 1484.07, 93.1668
182, 0.00000, 1783.74, 191.277, 1745.8, 270.767, 1696.68, 199.259
183, 0.00000, 1911.79, 252.141, 1869.64, 338.654, 1816.65, 260.19
184, 0.00000, 1997.64, 293.105, 1952.65, 385.367, 1896.18, 301.738
185, 0.00000, 2093.07, 339.728, 2042.27, 439.081, 1982.7, 347.076
186, 0.00000, 2101.15, 343.718, 2051.11, 443.971, 1990.37, 352.205
187, 0.00000, 2174.02, 380.027, 2122.79, 484.773, 2058.8, 389.878
188, 0.00000, 2129.15, 358.016, 2080.77, 460.406, 2017.33, 369.072
189, 0.00000, 2068.1, 327.65, 2024.78, 424.646, 1963.37, 340.256
190, 0.00000, 1933.63, 262.523, 1899.24, 350.089, 1841.34, 277.882
191, 0.00000, 1760.83, 180.897, 1732.49, 258.604, 1679.97, 196.286
192, 0.00000, 1495.89, 57.82, 1471.59, 123.414, 1427.41, 70.3094
193, 0.00000, 1254.11, -52.2285, 1233.1, 2.63447, 1196.48, -42.5062
194, 0.00000, 1073.19, -133.273, 1054.48, -86.1693, 1023.36, -125.599
195, 0.00000, 965.435, -181.105, 948.262, -138.447, 920.187, -174.396
196, 0.00000, 886.031, -215.824, 869.406, -176.728, 844.117, -210.476
197, 0.00000, 855.904, -229.864, 838.703, -191.087, 813.979, -225.192
198, 0.00000, 841.724, -235.781, 824.51, -197.712, 800.401, -231.483
199, 0.00000, 899.462, -209.697, 881.457, -169.213, 855.672, -204.843
200, 0.00000, 922.649, -199.335, 902.757, -158.497, 877.625, -195.933
201, 0.00000, 951.53, -186.229, 929.895, -144.555, 904.93, -183.909
202, 0.00000, 979.586, -173.454, 955.782, -131.063, 931.303, -172.645
203, 0.00000, 1046.56, -143.215, 1020.93, -98.2969, 995.211, -142.679
204, 0.00000, 1198.98, -75.8577, 1171.4, -24.3899, 1141.04, -73.6143
205, 0.00000, 1430.12, 29.1377, 1399.84, 90.0196, 1362.78, 33.9765
206, 0.00000, 1686.26, 147.395, 1652.96, 219.598, 1607.73, 155.584
207, 0.00000, 1788.14, 195.146, 1753.12, 271.939, 1704.82, 204.272
208, 0.00000, 1815.95, 208.197, 1781.34, 286.469, 1731.56, 218.466
209, 0.00000, 1866.37, 231.584, 1830.4, 313.603, 1778.09, 242.646
210, 0.00000, 1832.23, 214.971, 1798.43, 296.095, 1745.78, 227.432
211, 0.00000, 1841.53, 219.5, 1807.54, 300.924, 1754.72, 231.951
212, 0.00000, 1780.95, 190.743, 1749.84, 268.733, 1698.5, 203.892
213, 0.00000, 1699.69, 152.296, 1670.62, 226.603, 1621.4, 165.254
214, 0.00000, 1614.32, 112.79, 1586.81, 183.416, 1539.95, 125.156
215, 0.00000, 1513.33, 65.9002, 1488.03, 132.26, 1443.71, 77.9232
216, 0.00000, 1302.4, -30.2063, 1279.72, 26.592, 1242.29, -20.9253
217, 0.00000, 1082.43, -128.796, 1062.16, -81.6895, 1031.83, -122.469
218, 0.00000, 922.622, -199.441, 903.904, -159.142, 878.642, -195.291
219, 0.00000, 839.749, -235.73, 822.014, -198.921, 799.254, -232.523
220, 0.00000, 765.542, -268.026, 748.79, -234.318, 728.199, -265.56
221, 0.00000, 721.195, -287.396, 704.889, -255.311, 685.467, -285.375
222, 0.00000, 728.685, -284.053, 712.44, -251.552, 692.629, -281.768
223, 0.00000, 781.83, -260.279, 764.792, -225.767, 743.654, -257.65
224, 0.00000, 834.462, -236.984, 815.943, -200.732, 794.059, -234.745
225, 0.00000, 846.83, -231.559, 826.799, -195.352, 805.721, -230.653
226, 0.00000, 889.576, -212.386, 868.496, -174.568, 846.566, -211.562
227, 0.00000, 937.972, -191.057, 916.15, -151.233, 892.873, -189.843
228, 0.00000, 1077.02, -129.895, 1052.49, -84.3451, 1025.67, -128.068
229, 0.00000, 1162.31, -92.32, 1135.9, -42.3846, 1106.27, -89.8591
230, 0.00000, 1263.51, -46.7183, 1235.65, 7.32617, 1203.23, -43.3709
231, 0.00000, 1327.6, -17.7773, 1299.15, 39.0781, 1264.62, -13.464
232, 0.00000, 1439.33, 32.9044, 1409.69, 94.8274, 1371.41, 38.8354
233, 0.00000, 1563.26, 89.3513, 1533.03, 157.381, 1489.8, 97.9784
234, 0.00000, 1749.72, 175.676, 1719.15, 252.56, 1668.48, 188.696
235, 0.00000, 1860.69, 227.909, 1827.83, 310.813, 1773.16, 242.131
236, 0.00000, 1822.69, 209.494, 1791.96, 290.57, 1737.76, 224.595
237, 0.00000, 1752.08, 176.488, 1723.23, 254.057, 1671.08, 191.358
238, 0.00000, 1659.78, 133.355, 1633.26, 206.7, 1583.55, 148.011
239, 0.00000, 1580.35, 96.4178, 1555.22, 166.273, 1507.8, 110.431
240, 0.00000, 1370.36, 0.115005, 1348.21, 60.5626, 1307.37, 11.7602
241, 0.00000, 1167.2, -91.0919, 1146.34, -40.1536, 1113.02, -83.29
242, 0.00000, 1015.23, -159.29, 995.076, -113.947, 966.203, -153.79
243, 0.00000, 927.894, -197.741, 908.892, -156.215, 882.716, -193.214
244, 0.00000, 864.803, -225.373, 846.123, -186.568, 822.124, -221.969
245, 0.00000, 818.964, -245.442, 800.834, -208.435, 778.101, -242.487
246, 0.00000, 840.462, -235.746, 821.538, -197.789, 798.389, -232.994
247, 0.00000, 897.553, -210.309, 877.112, -169.947, 852.666, -207.638
248, 0.00000, 974.278, -177.209, 952.215, -133.317, 925.557, -174.126
249, 0.00000, 941.668, -191.985, 918.233, -149.271, 893.282, -190.706
250, 0.00000, 937.375, -193.499, 912.433, -150.973, 888.408, -193.629
251, 0.00000, 942.742, -191.156, 917.693, -148.199, 893.351, -191.158
252, 0.00000, 988.87, -170.483, 963.662, -125.521, 937.68, -169.587
253, 0.00000, 1096.78, -122.656, 1071.23, -73.7672, 1042.05, -120.007
254, 0.00000, 1228.34, -64.6636, 1199.95, -8.82991, 1166.25, -60.8871
255, 0.00000, 1428.91, 26.2351, 1398.1, 90.708, 1358.22, 32.4422
256, 0.00000, 1489.57, 54.0206, 1457.6, 121.202, 1415.98, 60.6504
257, 0.00000, 1609.59, 109.141, 1577.12, 181.855, 1531.01, 118.253
258, 0.00000, 1582.23, 96.4882, 1551.59, 167.929, 1505.63, 106.523
259, 0.00000, 1617.47, 112.993, 1587.63, 185.9, 1540, 124.5
260, 0.00000, 1640.69, 124.211, 1611.94, 197.28, 1563.61, 136.761
261, 0.00000, 1614.16, 111.894, 1585.95, 183.424, 1538.67, 124.106
262, 0.00000, 1513.5, 65.587, 1487.4, 132.544, 1442.98, 77.22
263, 0.00000, 1410.75, 18.5842, 1386.81, 80.8097, 1345.35, 29.6137
264, 0.00000, 1198.05, -77.4144, 1176.92, -24.8801, 1142.37, -69.0139
265, 0.00000, 992.063, -169.087, 973.187, -125.467, 945.149, -163.361
266, 0.00000, 827.152, -241.883, 809.236, -204.541, 786.107, -238.57
267, 0.00000, 711.866, -291.922, 695.01, -259.371, 675.463, -290.149
268, 0.00000, 643.691, -321.369, 627.414, -291.515, 609.892, -320.474
269, 0.00000, 601.032, -339.667, 585.036, -311.604, 568.911, -339.443
270, 0.00000, 610.678, -335.262, 593.978, -306.805, 577.869, -335.45
271, 0.00000, 665.596, -311.137, 648.13, -280.207, 630.281, -310.728
272, 0.00000, 717.469, -288.288, 697.011, -255.692, 679.243, -289.625
273, 0.00000, 718.387, -288.374, 695.387, -255.671, 678.81, -291.869
274, 0.00000, 788.159, -257.835, 762.73, -222.382, 745.024, -262.03
275, 0.00000, 887.78, -214.466, 861.056, -174.742, 840.342, -217.588
276, 0.00000, 1023.51, -154.625, 994.69, -109.296, 970.232, -156.669
277, 0.00000, 1147.45, -99.5439, 1117.16, -48.9634, 1088.94, -100.131
278, 0.00000, 1280.08, -40.0731, 1248.1, 16.2882, 1215.79, -39.1105
279, 0.00000, 1430.35, 27.9901, 1396.91, 91.0778, 1359.57, 31.2023
280, 0.00000, 1552.37, 83.7214, 1517.89, 152.541, 1476.16, 89.0501
281, 0.00000, 1637.13, 122.673, 1602.55, 195.627, 1557.32, 130.101
282, 0.00000, 1733, 167.033, 1698.75, 244.697, 1649.3, 177.24
283, 0.00000, 1827.14, 211.473, 1792.74, 293.046, 1740.01, 223.637
284, 0.00000, 1758.22, 179.044, 1725.64, 257.593, 1674.57, 191.176
285, 0.00000, 1644.09, 126.126, 1614.22, 198.942, 1566.69, 137.583
286, 0.00000, 1532.47, 74.2227, 1504.7, 142.369, 1460.11, 85.0241
287, 0.00000, 1418.25, 22.1351, 1393.66, 84.5868, 1352.34, 32.7201
288, 0.00000, 1204.67, -74.3464, 1182.76, -21.6322, 1148.45, -66.5266
289, 0.00000, 962.944, -182.365, 942.988, -139.231, 915.914, -177.837
290, 0.00000, 842.642, -235.161, 824.12, -197.066, 800.651, -231.988
