hour, t(sec), P1 (kW), Q1 (kvar), P2 (kW), Q2 (kvar), P3 (kW), Q3 (kvar)
1, 0.00000, 1148.28, -99.8923, 1126.76, -49.5565, 1094.29, -92.9737
2, 0.00000, 1020.79, -156.99, 999.828, -111.374, 971.13, -152.051
3, 0.00000, 884.247, -216.994, 864.62, -177.285, 840.324, -213.95
4, 0.00000, 813.832, -247.753, 794.328, -210.899, 772.421, -246.074
5, 0.00000, 768.181, -267.636, 749.082, -232.638, 728.565, -266.559
6, 0.00000, 734.952, -281.927, 715.664, -248.359, 696.471, -281.749
7, 0.00000, 716.071, -289.887, 696.021, -257.591, 678.307, -291.02
8, 0.00000, 753.2, -273.208, 730.69, -239.545, 713.045, -275.78
9, 0.00000, 901.845, -208.319, 874.661, -168.127, 853.778, -211.598
10, 0.00000, 1079.02, -130.076, 1048.54, -82.323, 1022.84, -132.305
11, 0.00000, 1232.24, -61.4336, 1200.17, -7.37504, 1169.88, -61.7586
12, 0.00000, 1426.41, 26.4813, 1391.77, 89.0737, 1355.47, 28.4029
13, 0.00000, 1671.34, 139.244, 1633.49, 212.952, 1589.29, 144.241
14, 0.00000, 1747.31, 174.485, 1709.11, 251.984, 1661.83, 181.188
15, 0.00000, 1806.71, 202.125, 1769.12, 282.65, 1718.93, 210.953
16, 0.00000, 1948.89, 269.611, 1908.55, 358.085, 1852.94, 280.28
17, 0.00000, 1880.74, 236.971, 1843.28, 322.092, 1789.07, 248.349
18, 0.00000, 1653.67, 130.216, 1622.01, 204.285, 1574.32, 140.765
19, 0.00000, 1501.88, 60.0722, 1473.26, 127.137, 1430.03, 69.5648
20, 0.00000, 1413.68, 19.7065, 1387.28, 82.6639, 1346.45, 28.9592
21, 0.00000, 1341.44, -13.1233, 1317.04, 46.4239, 1278.12, -3.90666
22, 0.00000, 1289.85, -36.5598, 1266.61, 20.7795, 1228.99, -27.4917
23, 0.00000, 1212.67, -70.9167, 1190.9, -17.6582, 1156.05, -62.6945
24, 0.00000, 1066.35, -136.153, 1046.63, -89.4054, 1016.33, -129.539
25, 0.00000, 913.6, -203.698, 895.936, -163.368, 870.112, -198.619
26, 0.00000, 789.168, -258.063, 772.743, -222.948, 750.776, -254.593
27, 0.00000, 708.354, -293.132, 692.942, -261.337, 673.317, -290.485
28, 0.00000, 662.764, -312.868, 647.643, -282.862, 629.408, -310.885
29, 0.00000, 654.413, -317.024, 637.968, -286.395, 619.863, -315.882
30, 0.00000, 654.364, -316.815, 637.998, -286.312, 619.961, -315.667
31, 0.00000, 732.665, -282, 715.59, -248.276, 695.144, -279.819
32, 0.00000, 808.198, -249.549, 789.246, -213.25, 767.538, -247.672
33, 0.00000, 786.408, -258.914, 765.865, -224.04, 746.187, -259.149
34, 0.00000, 857.549, -226.635, 834.757, -189.036, 813.877, -227.424
35, 0.00000, 919.577, -199.929, 895.387, -160.01, 873.227, -200.734
36, 0.00000, 1051.63, -141.478, 1025.19, -96.2656, 999.633, -141.497
37, 0.00000, 1266.24, -45.6573, 1237.31, 8.88918, 1205.01, -42.9826
38, 0.00000, 1445.95, 35.7739, 1414.99, 98.3538, 1376.82, 40.8928
39, 0.00000, 1573.67, 94.3477, 1541.55, 162.756, 1498.97, 101.53
40, 0.00000, 1673.16, 140.666, 1640.21, 213.241, 1594.47, 149.343
41, 0.00000, 1768.06, 184.64, 1734.63, 262.074, 1684.96, 195.473
42, 0.00000, 1786.18, 192.79, 1753.65, 271.677, 1702.27, 205.164
43, 0.00000, 1852.42, 223.711, 1819.47, 305.943, 1765.43, 237.495
44, 0.00000, 1814.06, 205.531, 1782.86, 286.148, 1729.3, 219.977
45, 0.00000, 1686.1, 145.722, 1656.91, 220.35, 1607.47, 158.734
46, 0.00000, 1612.2, 111.358, 1584.02, 182.646, 1536.94, 123.479
47, 0.00000, 1467.49, 44.9397, 1442.19, 109.223, 1399.66, 55.8729
48, 0.00000, 1293.75, -34.2184, 1271.26, 22.3861, 1233.89, -24.8714
49, 0.00000, 1066.83, -136.06, 1047.41, -89.1463, 1016.82, -129.1
50, 0.00000, 929.99, -196.476, 912.141, -155.49, 885.847, -191.219
51, 0.00000, 810.143, -248.816, 793.217, -212.977, 770.881, -245.408
52, 0.00000, 719.698, -288.154, 703.487, -255.946, 683.911, -285.99
53, 0.00000, 666.874, -311.053, 651.235, -280.931, 633.161, -309.461
54, 0.00000, 673.663, -307.992, 658.039, -277.508, 639.647, -306.202
55, 0.00000, 728.957, -283.557, 711.814, -250.538, 692.009, -281.792
56, 0.00000, 814.476, -246.467, 795.48, -210.474, 774.058, -244.782
57, 0.00000, 778.833, -262.113, 759.054, -228.049, 739.687, -262.096
58, 0.00000, 795.185, -254.165, 773.979, -219.694, 754.985, -255.178
59, 0.00000, 886.01, -214.471, 863.404, -176.332, 841.97, -214.814
60, 0.00000, 930.578, -194.279, 907.208, -154.643, 884.878, -194.51
61, 0.00000, 989.719, -168.669, 964.957, -126.436, 941.103, -168.768
62, 0.00000, 1075.63, -130.761, 1050.2, -84.7638, 1023.46, -129.492
63, 0.00000, 1160.15, -93.1847, 1133.86, -43.405, 1104.3, -90.7001
64, 0.00000, 1263.75, -47.1497, 1236.79, 7.69259, 1203.22, -42.6162
65, 0.00000, 1370.32, 0.722076, 1343, 60.6509, 1305.24, 7.60949
66, 0.00000, 1475.39, 48.4235, 1448.62, 113.181, 1406.43, 58.3271
67, 0.00000, 1555.3, 84.9884, 1527.78, 153.557, 1482.7, 96.2473
68, 0.00000, 1537.46, 76.8744, 1511.31, 144.293, 1466.52, 88.7187
69, 0.00000, 1418.82, 22.495, 1395.29, 84.705, 1353.64, 33.8805
70, 0.00000, 1357.73, -5.75456, 1334.86, 53.8448, 1295.11, 4.82866
71, 0.00000, 1290.41, -35.8153, 1268.48, 20.7356, 1230.88, -26.0088
72, 0.00000, 1126.98, -109.219, 1107.17, -59.7508, 1074.58, -101.275
73, 0.00000, 969.086, -179.074, 950.546, -136.616, 923.338, -173.655
74, 0.00000, 813.279, -248.003, 795.664, -211.078, 772.74, -244.645
75, 0.00000, 713.424, -291.313, 696.896, -258.614, 677.055, -289.18
76, 0.00000, 658.372, -315.095, 641.861, -284.619, 623.922, -314.086
77, 0.00000, 609.46, -336.205, 593.728, -307.605, 577.008, -335.478
78, 0.00000, 591.671, -343.979, 575.965, -316.088, 559.841, -343.592
79, 0.00000, 595.356, -342.124, 579.554, -313.999, 563.277, -341.701
80, 0.00000, 613.909, -333.299, 596.348, -305.223, 581.001, -334.427
81, 0.00000, 722.405, -286.244, 702.447, -254.043, 684.769, -287.345
82, 0.00000, 921.054, -199.584, 898.165, -159.268, 875.003, -199.055
83, 0.00000, 1131.61, -106.217, 1105.57, -57.2511, 1076.58, -103.941
84, 0.00000, 1364.77, -1.40815, 1335.07, 57.8925, 1299.07, 3.07733
85, 0.00000, 1520.84, 69.8104, 1489.14, 136.153, 1448.11, 76.2637
86, 0.00000, 1643.42, 126.679, 1609.59, 198.247, 1565.17, 134.054
87, 0.00000, 1765.04, 183.405, 1729.33, 260.617, 1681.03, 192.133
88, 0.00000, 1850.17, 223.27, 1813.49, 304.694, 1762.06, 233.395
89, 0.00000, 1870.94, 232.973, 1833.35, 316.528, 1780.56, 243.425
90, 0.00000, 1919.35, 255.593, 1881.92, 342.497, 1826.16, 267.953
91, 0.00000, 1869.93, 232.153, 1834.61, 316.162, 1780.25, 244.809
92, 0.00000, 1811.92, 204.796, 1780.34, 285.07, 1727.27, 218.731
93, 0.00000, 1673.72, 139.937, 1644.83, 214.077, 1595.65, 152.942
94, 0.00000, 1549.06, 81.9696, 1523.18, 150.606, 1477.2, 94.6822
95, 0.00000, 1397.32, 12.6692, 1373.98, 74.005, 1332.98, 23.7445
96, 0.00000, 1259.54, -49.7919, 1238.35, 5.40206, 1201.53, -40.0603
97, 0.00000, 1059.4, -139.331, 1040.58, -92.8393, 1010.04, -132.066
98, 0.00000, 894.295, -212.516, 876.424, -172.455, 850.935, -207.76
99, 0.00000, 777.212, -263.565, 760.351, -228.439, 738.593, -260.473
100, 0.00000, 699.761, -297.137, 683.337, -265.143, 664.051, -295.273
101, 0.00000, 646.434, -320.269, 630.408, -290.29, 612.652, -319.091
102, 0.00000, 634.335, -325.451, 617.891, -296.038, 600.831, -324.927
103, 0.00000, 667.281, -310.676, 649.548, -279.76, 631.847, -310.505
104, 0.00000, 730.775, -282.595, 709.856, -249.181, 691.618, -283.917
105, 0.00000, 724.606, -286.126, 700.973, -252.617, 684.023, -289.763
106, 0.00000, 769.723, -265.836, 744.046, -230.5, 726.562, -270.312
107, 0.00000, 937.02, -193.279, 909.074, -150.78, 886.595, -196.037
108, 0.00000, 1163.52, -92.8756, 1133.05, -40.8125, 1103.65, -92.8665
109, 0.00000, 1379.58, 4.42654, 1346.25, 66.0232, 1310.13, 6.9402
110, 0.00000, 1600.87, 105.709, 1565.1, 177.417, 1521.55, 111.434
111, 0.00000, 1727.18, 164.546, 1689.87, 241.866, 1642.29, 171.915
112, 0.00000, 1859.73, 226.973, 1819.15, 311.187, 1767.33, 235.154
113, 0.00000, 1930.53, 260.487, 1888.98, 348.767, 1834.16, 269.984
114, 0.00000, 2014.68, 300.706, 1971.51, 394.371, 1912.89, 311.663
115, 0.00000, 2045.75, 315.761, 2002.35, 411.473, 1942.08, 327.599
116, 0.00000, 1981.64, 284.898, 1943.24, 376.556, 1883.88, 298.933
117, 0.00000, 1876.45, 234.866, 1843.25, 319.776, 1787.02, 249.839
118, 0.00000, 1838.88, 216.943, 1806.44, 300.091, 1751.33, 231.63
119, 0.00000, 1693.93, 149.024, 1665.6, 224.575, 1614.92, 163.257
120, 0.00000, 1524.97, 70.9847, 1500.04, 138.295, 1454.71, 83.825
121, 0.00000, 1273.04, -43.6355, 1251.15, 12.093, 1214.23, -34.2288
122, 0.00000, 1094.7, -124.044, 1073.94, -75.2846, 1042.44, -117.297
123, 0.00000, 966.559, -180.734, 947.449, -137.584, 919.932, -175.461
124, 0.00000, 897.422, -211.151, 878.52, -170.813, 853.315, -207.151
125, 0.00000, 843.242, -235, 825.127, -196.783, 801.346, -231.412
126, 0.00000, 804.966, -251.629, 786.899, -215.019, 764.475, -248.826
127, 0.00000, 824.121, -243.314, 805.896, -205.421, 782.448, -239.992
128, 0.00000, 858.754, -228.184, 839.544, -188.486, 815.041, -224.792
129, 0.00000, 896.357, -211.7, 875.083, -170.224, 850.098, -209.188
130, 0.00000, 1036.8, -150.156, 1013, -102.645, 984.116, -146.718
131, 0.00000, 1210.73, -72.6093, 1184.57, -17.6377, 1150.47, -67.3425
132, 0.00000, 1429.59, 26.2407, 1400.64, 91.078, 1359.49, 34.2556
133, 0.00000, 1610.65, 109.349, 1579.29, 182.5, 1532.23, 119.661
134, 0.00000, 1776.07, 186.696, 1741.8, 267.096, 1690, 198.326
135, 0.00000, 1801.89, 199.012, 1767.24, 280.544, 1714.67, 210.916
136, 0.00000, 1811.09, 203.148, 1776.68, 285.315, 1723.44, 215.598
137, 0.00000, 1774.93, 186.101, 1741.41, 266.448, 1689.27, 198.361
138, 0.00000, 1774.77, 186.367, 1741.47, 266.437, 1689.46, 198.672
139, 0.00000, 1778.62, 188.62, 1745.73, 268.188, 1693.94, 201.034
140, 0.00000, 1665.9, 136.139, 1636.28, 210.148, 1587.59, 148.439
141, 0.00000, 1575.31, 94.0762, 1548.01, 163.97, 1501.67, 106.213
142, 0.00000, 1505.04, 61.6254, 1479.5, 128.358, 1434.98, 73.6233
143, 0.00000, 1434.47, 29.469, 1411.18, 92.6225, 1368.59, 41.5418
144, 0.00000, 1302.61, -30.5042, 1281.74, 26.7653, 1242.97, -19.4075
145, 0.00000, 1127.67, -108.922, 1108.55, -59.5591, 1075.7, -100.422
146, 0.00000, 972.607, -178.029, 954.178, -134.744, 926.2, -172.092
147, 0.00000, 861.554, -226.673, 844.227, -188.238, 819.861, -222.281
148, 0.00000, 785.237, -259.95, 768.338, -224.653, 746.453, -256.802
149, 0.00000, 745.713, -277.06, 728.799, -243.441, 708.364, -274.787
150, 0.00000, 719.932, -288.524, 702.553, -255.831, 683.148, -287.131
151, 0.00000, 718.692, -288.833, 700.242, -255.94, 681.206, -288.271
152, 0.00000, 740.523, -279.014, 720.575, -245.168, 701.476, -279.268
153, 0.00000, 844.899, -234.048, 823.246, -195.244, 800.749, -233.241
154, 0.00000, 975.202, -176.893, 951.521, -132.617, 925.353, -175.022
155, 0.00000, 1070.44, -134.908, 1045.78, -86.3823, 1016.46, -131.688
156, 0.00000, 1151.55, -98.8318, 1126.08, -46.74, 1094.11, -94.452
157, 0.00000, 1216.29, -69.9286, 1190.05, -14.9366, 1155.98, -64.7095
158, 0.00000, 1264.46, -48.0804, 1236.95, 8.76684, 1201.93, -42.9971
159, 0.00000, 1280.9, -40.518, 1252.61, 17.029, 1217.39, -35.7492
160, 0.00000, 1389.58, 8.50341, 1360.08, 70.9323, 1321.29, 14.7814
161, 0.00000, 1512.6, 64.7695, 1481.75, 132.584, 1439.01, 72.7087
162, 0.00000, 1666.05, 135.635, 1634.48, 210.374, 1586.17, 146.618
163, 0.00000, 1672.91, 138.905, 1642.33, 213.865, 1593.31, 150.867
164, 0.00000, 1663.64, 134.741, 1634.96, 208.847, 1585.71, 147.91
165, 0.00000, 1573.33, 93.2186, 1546.03, 162.852, 1499.92, 105.228
166, 0.00000, 1485.23, 52.6159, 1459.54, 118.344, 1415.96, 63.9631
167, 0.00000, 1397.53, 12.6737, 1374.1, 74.1475, 1333.03, 23.75
168, 0.00000, 1224.27, -65.6313, 1203.64, -12.0084, 1167.89, -56.2319
169, 0.00000, 1041.52, -147.298, 1023.09, -101.507, 992.957, -140.055
170, 0.00000, 890.638, -214.076, 873.182, -174.225, 847.663, -209.067
171, 0.00000, 795.889, -255.479, 779.392, -219.56, 756.768, -251.662
172, 0.00000, 705.02, -294.862, 688.825, -262.677, 669.259, -292.701
173, 0.00000, 654.515, -316.658, 638.725, -286.561, 620.749, -315.213
174, 0.00000, 634.709, -325.295, 618.426, -296.022, 601.407, -324.701
175, 0.00000, 624.895, -329.437, 607.654, -300.336, 591.265, -329.766
176, 0.00000, 682.554, -303.61, 663.191, -272.132, 645.829, -304.57
177, 0.00000, 807.772, -249.902, 784.908, -213.042, 764.695, -251.147
178, 0.00000, 975.832, -176.117, 949.495, -132.31, 925.08, -176.795
179, 0.00000, 1108.29, -117.404, 1079.41, -67.9414, 1051.43, -117.353
180, 0.00000, 1304.47, -29.4303, 1273.41, 28.488, 1239.29, -26.8609
181, 0.00000, 1560.72, 87.4652, 1526.35, 156.86, 1484.06, 93.1934
182, 0.00000, 1783.74, 191.309, 1745.8, 270.798, 1696.68, 199.289
183, 0.00000, 1911.79, 252.176, 1869.64, 338.686, 1816.65, 260.221
184, 0.00000, 1997.64, 293.143, 1952.65, 385.399, 1896.18, 301.77
185, 0.00000, 2093.06, 339.77, 2042.27, 439.112, 1982.7, 347.111
186, 0.00000, 2101.14, 343.76, 2051.1, 444.001, 1990.37, 352.238
187, 0.00000, 2174.01, 380.072, 2122.78, 484.804, 2058.8, 389.913
188, 0.00000, 2129.14, 358.058, 2080.75, 460.437, 2017.32, 369.105
189, 0.00000, 2068.08, 327.679, 2024.77, 424.662, 1963.36, 340.275
190, 0.00000, 1933.63, 262.558, 1899.24, 350.122, 1841.34, 277.913
191, 0.00000, 1760.85, 180.933, 1732.51, 258.64, 1679.98, 196.32
192, 0.00000, 1495.9, 57.8513, 1471.6, 123.445, 1427.43, 70.3389
193, 0.00000, 1254.14, -52.1868, 1233.14, 2.67393, 1196.52, -42.4675
194, 0.00000, 1073.22, -133.25, 1054.5, -86.1468, 1023.39, -125.577
195, 0.00000, 965.45, -181.087, 948.276, -138.428, 920.201, -174.379
196, 0.00000, 886.044, -215.808, 869.418, -176.713, 844.13, -210.462
197, 0.00000, 855.92, -229.852, 838.718, -191.076, 813.994, -225.181
198, 0.00000, 841.736, -235.768, 824.521, -197.7, 800.413, -231.471
199, 0.00000, 899.473, -209.677, 881.467, -169.194, 855.682, -204.824
200, 0.00000, 922.662, -199.318, 902.77, -158.481, 877.638, -195.917
201, 0.00000, 951.541, -186.211, 929.904, -144.537, 904.94, -183.892
202, 0.00000, 979.596, -173.434, 955.79, -131.044, 931.313, -172.626
203, 0.00000, 1046.57, -143.191, 1020.94, -98.2737, 995.22, -142.657
204, 0.00000, 1198.99, -75.8355, 1171.41, -24.3684, 1141.06, -73.5937
205, 0.00000, 1430.12, 29.166, 1399.84, 90.0467, 1362.79, 34.003
206, 0.00000, 1686.26, 147.427, 1652.96, 219.629, 1607.73, 155.614
207, 0.00000, 1788.15, 195.179, 1753.12, 271.972, 1704.83, 204.304
208, 0.00000, 1815.96, 208.231, 1781.34, 286.502, 1731.57, 218.498
209, 0.00000, 1866.3, 231.573, 1830.33, 313.582, 1778.04, 242.628
210, 0.00000, 1832.2, 214.974, 1798.4, 296.095, 1745.74, 227.431
211, 0.00000, 1841.51, 219.51, 1807.51, 300.931, 1754.7, 231.958
212, 0.00000, 1780.92, 190.76, 1749.82, 268.75, 1698.47, 203.907
213, 0.00000, 1699.68, 152.314, 1670.61, 226.621, 1621.39, 165.27
214, 0.00000, 1614.3, 112.812, 1586.8, 183.437, 1539.94, 125.176
215, 0.00000, 1513.32, 65.9245, 1488.02, 132.284, 1443.7, 77.9458
216, 0.00000, 1302.41, -30.1822, 1279.72, 26.6161, 1242.29, -20.9025
217, 0.00000, 1082.43, -128.774, 1062.16, -81.6674, 1031.84, -122.448
218, 0.00000, 922.627, -199.421, 903.908, -159.121, 878.647, -195.271
219, 0.00000, 839.752, -235.712, 822.017, -198.903, 799.257, -232.506
220, 0.00000, 765.545, -268.009, 748.792, -234.302, 728.202, -265.544
221, 0.00000, 721.198, -287.381, 704.892, -255.297, 685.47, -285.362
222, 0.00000, 728.691, -284.037, 712.445, -251.537, 692.635, -281.753
223, 0.00000, 781.835, -260.26, 764.796, -225.748, 743.659, -257.632
224, 0.00000, 834.469, -236.965, 815.948, -200.714, 794.066, -234.728
225, 0.00000, 846.836, -231.543, 826.804, -195.337, 805.727, -230.638
226, 0.00000, 889.579, -212.366, 868.498, -174.549, 846.569, -211.543
227, 0.00000, 937.977, -191.037, 916.154, -151.213, 892.878, -189.824
228, 0.00000, 1077.02, -129.876, 1052.5, -84.327, 1025.68, -128.05
229, 0.00000, 1162.31, -92.2986, 1135.9, -42.3638, 1106.27, -89.8389
230, 0.00000, 1263.52, -46.6952, 1235.65, 7.34869, 1203.23, -43.3492
231, 0.00000, 1327.6, -17.7523, 1299.16, 39.1024, 1264.62, -13.4406
232, 0.00000, 1439.34, 32.9309, 1409.7, 94.8531, 1371.42, 38.86
233, 0.00000, 1563.27, 89.38, 1533.04, 157.409, 1489.81, 98.0049
234, 0.00000, 1749.72, 175.708, 1719.15, 252.591, 1668.48, 188.725
235, 0.00000, 1860.69, 227.943, 1827.83, 310.845, 1773.16, 242.161
236, 0.00000, 1822.71, 209.545, 1791.98, 290.621, 1737.79, 224.644
237, 0.00000, 1752.1, 176.533, 1723.25, 254.102, 1671.1, 191.401
238, 0.00000, 1659.79, 133.396, 1633.27, 206.741, 1583.56, 148.05
239, 0.00000, 1580.36, 96.455, 1555.23, 166.31, 1507.81, 110.466
240, 0.00000, 1370.38, 0.145019, 1348.23, 60.5927, 1307.38, 11.7886
241, 0.00000, 1167.22, -91.0675, 1146.35, -40.1291, 1113.03, -83.2668
242, 0.00000, 1015.24, -159.268, 995.084, -113.926, 966.212, -153.769
243, 0.00000, 927.9, -197.722, 908.897, -156.196, 882.722, -193.196
244, 0.00000, 864.811, -225.296, 846.128, -186.488, 822.128, -221.894
245, 0.00000, 818.963, -245.414, 800.834, -208.407, 778.1, -242.459
246, 0.00000, 840.462, -235.721, 821.537, -197.763, 798.389, -232.969
247, 0.00000, 897.552, -210.284, 877.11, -169.923, 852.664, -207.614
248, 0.00000, 974.283, -177.19, 952.218, -133.298, 925.561, -174.108
249, 0.00000, 941.666, -191.968, 918.231, -149.255, 893.28, -190.69
250, 0.00000, 937.372, -193.479, 912.429, -150.954, 888.405, -193.61
251, 0.00000, 942.742, -191.136, 917.692, -148.179, 893.351, -191.139
252, 0.00000, 988.87, -170.46, 963.661, -125.499, 937.68, -169.565
253, 0.00000, 1096.78, -122.689, 1071.24, -73.8037, 1042.06, -120.04
254, 0.00000, 1228.35, -64.6387, 1199.95, -8.80672, 1166.26, -60.8644
255, 0.00000, 1428.91, 26.2629, 1398.1, 90.7346, 1358.22, 32.4681
256, 0.00000, 1489.57, 54.0486, 1457.6, 121.229, 1415.99, 60.6765
257, 0.00000, 1609.6, 109.171, 1577.13, 181.884, 1531.01, 118.281
258, 0.00000, 1582.23, 96.5175, 1551.58, 167.958, 1505.63, 106.55
259, 0.00000, 1617.47, 113.023, 1587.63, 185.93, 1540, 124.528
260, 0.00000, 1640.7, 124.242, 1611.94, 197.31, 1563.62, 136.79
261, 0.00000, 1614.17, 111.923, 1585.95, 183.453, 1538.67, 124.133
262, 0.00000, 1513.5, 65.6152, 1487.39, 132.572, 1442.97, 77.2465
263, 0.00000, 1410.74, 18.611, 1386.81, 80.8361, 1345.35, 29.6391
264, 0.00000, 1198.06, -77.3903, 1176.93, -24.856, 1142.38, -68.991
265, 0.00000, 992.072, -169.066, 973.195, -125.446, 945.158, -163.341
266, 0.00000, 827.159, -241.864, 809.241, -204.522, 786.113, -238.553
267, 0.00000, 711.873, -291.906, 695.016, -259.356, 675.469, -290.134
268, 0.00000, 643.695, -321.356, 627.417, -291.503, 609.896, -320.462
269, 0.00000, 601.035, -339.656, 585.039, -311.593, 568.914, -339.432
270, 0.00000, 610.684, -335.25, 593.983, -306.792, 577.875, -335.438
271, 0.00000, 665.601, -311.121, 648.134, -280.19, 630.286, -310.713
272, 0.00000, 717.475, -288.272, 697.016, -255.677, 679.25, -289.611
273, 0.00000, 718.394, -288.363, 695.393, -255.66, 678.817, -291.858
274, 0.00000, 788.169, -257.82, 762.739, -222.368, 745.034, -262.017
275, 0.00000, 887.788, -214.451, 861.063, -174.727, 840.35, -217.574
276, 0.00000, 1023.52, -154.608, 994.698, -109.279, 970.241, -156.652
277, 0.00000, 1147.46, -99.5233, 1117.17, -48.9434, 1088.95, -100.111
278, 0.00000, 1280.08, -40.0494, 1248.11, 16.3109, 1215.79, -39.0884
279, 0.00000, 1430.36, 28.0165, 1396.91, 91.1032, 1359.57, 31.2269
280, 0.00000, 1552.38, 83.7497, 1517.9, 152.568, 1476.17, 89.0763
281, 0.00000, 1637.13, 122.703, 1602.55, 195.656, 1557.32, 130.129
282, 0.00000, 1733.01, 167.065, 1698.75, 244.727, 1649.3, 177.269
283, 0.00000, 1827.15, 211.506, 1792.74, 293.078, 1740.01, 223.667
284, 0.00000, 1758.21, 179.075, 1725.63, 257.623, 1674.56, 191.204
285, 0.00000, 1644.08, 126.156, 1614.21, 198.97, 1566.68, 137.611
286, 0.00000, 1532.45, 74.2411, 1504.67, 142.389, 1460.08, 85.0412
287, 0.00000, 1418.25, 22.1547, 1393.66, 84.6072, 1352.34, 32.7387
288, 0.00000, 1204.68, -74.3228, 1182.77, -21.6085, 1148.45, -66.5042
289, 0.00000, 962.953, -182.345, 942.997, -139.211, 915.923, -177.818
290, 0.00000, 842.648, -235.143, 824.125, -197.049, 800.657, -231.971
