hour, t(sec), kWh,State,kWOut,kWIn,kvarOut,DCkW,kWTotalLosses,kWInvLosses,kWIdlingLosses,kWChDchLosses,kWh Chng,InvEff,InverterON,Vref,Vavg (DRC),VV Oper,VW Oper,DRC Oper,VV_DRC Oper,kWDesired,kW VW Limit,Limit kWOut Function,kVA Exceeded,
0, 1.00000, 8000, 0, 0, 3.4658E-017, -0.5, -2.84196E-017, 3.4658E-017, 6.23845E-018, 2.84196E-017, 0, -2000, 0.82, 1, 0.999974, 0, 9999, 9999, 9999, 0, 0, 9999, 900, 0
0, 2.00000, 8000, -1, 0, 9.00001, 6.3032, -7.40667, 2.334, 1.59334, 0, 0.740667, 0, 0.822963, 1, 0.999858, 0.999974, 9999, 9999, 9999, 1, -9, 9999, 900, 0
0, 3.00000, 8000, -1, 0, 72.0001, 51.5913, -60.7908, 17.2883, 11.2092, 0, 6.07908, 0.00185167, 0.844316, 1, 0.998906, 0.999916, 9999, 9999, 9999, 1, -72, 9999, 900, 0
0, 4.00000, 8000.02, -1, 0, 108, 349.84, -92.5584, 24.6973, 15.4415, 0, 9.25584, 0.0151977, 0.857023, 1, 0.992496, 0.999382, 9999, 9999, 9999, 1, -108, 9999, 900, 0
0, 5.00000, 8000.04, -1, 0, 126, 559.204, -108.804, 28.0767, 17.1963, 0, 10.8804, 0.0231396, 0.863522, 1, 0.982455, 0.995701, 9999, 9999, 9999, 0.2, -126, 9999, 900, 0
0, 6.00000, 8000.07, -1, 0, 144, 639.247, -125.297, 31.2326, 18.7029, 0, 12.5297, 0.0272009, 0.870119, 1, 0.965957, 0.987475, 9999, 9999, 9999, 0.2, -144, 9999, 900, 0
0, 7.00000, 8000.1, -1, 0, 270, 799.218, -244.815, 49.6665, 25.185, 0, 24.4815, 0.0313243, 0.906722, 1, 0.947421, 0.974206, 9999, 9999, 9999, 0.2, -270, 9999, 900, 0
0, 8.00000, 8000.16, -1, 0, 450, -599.405, -419.072, 72.835, 30.9278, 0, 41.9072, 0.0612038, 0.931271, 1, 0.994565, 0.956689, 9999, 9999, 9999, -0.2, -450, 9999, 900, 0
0, 9.00000, 8000.26, -1, 0, 540, 87.1768, -506.017, 84.5851, 33.9834, 0, 50.6017, 0.104768, 0.937068, 1, 0.975043, 0.970993, 9999, 9999, 9999, 1, -540, 9999, 900, 0
0, 10.00000, 8000.39, -1, 0, 720, 382.681, -683.194, 105.126, 36.8067, 0, 68.3194, 0.126504, 0.94888, 1, 0.980183, 0.984804, 9999, 9999, 9999, 1, -720, 9999, 900, 0
0, 11.00000, 8000.56, -1, 0, 699.414, 714.716, -662.704, 102.98, 36.7097, 0, 66.2704, 0.170798, 0.947514, 1, 0.967791, 0.977613, 9999, 9999, 9999, 1, -855, 9999, 900, 1
0, 12.00000, 8000.73, 0, 0, 1.90994E-014, -259.094, -1.56615E-014, 1.90994E-014, 3.43789E-015, 1.56615E-014, 0, 0.165676, 0.82, 1, 0.986108, 0.973987, 9999, 9999, 9999, -1, 0, 9999, 900, 0
0, 13.00000, 8000.73, 1, 9, 0, -30, 10.9175, 3.13052, 1.91747, 0, 1.21305, 0, 0.824367, 1, 0.998894, 0.97695, 9999, 9999, 9999, -0.2, 9, 9999, 900, 0
0, 14.00000, 8000.72, 1, 72, 0, -122.694, 84.3354, 21.706, 12.3354, 0, 9.3706, -0.00336959, 0.853734, 1, 0.997278, 0.992501, 9999, 9999, 9999, -1, 72, 9999, 900, 0
0, 15.00000, 8000.7, 1, 108, 0, -90.3766, 124.184, 29.9828, 16.1845, 0, 13.7983, -0.0260295, 0.869674, 1, 1.00087, 0.998086, 9999, 9999, 9999, -1, 108, 9999, 900, 0
0, 16.00000, 8000.66, 1, 126, 0, -419.486, 143.6, 33.5551, 17.5996, 0, 15.9555, -0.0383285, 0.87744, 1, 1.01442, 0.999074, 9999, 9999, 9999, -0.2, 126, 9999, 900, 0
0, 17.00000, 8000.62, 1, 144, 0, -479.436, 162.697, 36.7749, 18.6974, 0, 18.0775, -0.0443209, 0.885079, 1, 1.04264, 1.00765, 9999, 9999, 9999, -0.2, 144, 9999, 900, 0
0, 18.00000, 8000.57, 1, 270, 0, -599.414, 295.309, 58.1212, 25.3091, 0, 32.8121, -0.0502153, 0.914296, 1, 1.08322, 1.02853, 9999, 9999, 9999, -0.2, 270, 9999, 900, 0
0, 19.00000, 8000.47, 1, 450, 0, 674.046, 481.075, 84.5278, 31.075, 0, 53.4528, -0.0911448, 0.935405, 1, 1.03686, 1.06293, 9999, 9999, 9999, 1, 450, 9999, 900, 0
0, 20.00000, 8000.33, 1, 540, 0, 575.773, 573.512, 97.2353, 33.5118, 0, 63.7235, -0.14848, 0.941567, 1, 1.03652, 1.06004, 9999, 9999, 9999, 1, 540, 9999, 900, 0
0, 21.00000, 8000.15, 1, 720, 0, 181.028, 754.982, 118.869, 34.9817, 0, 83.8869, -0.17701, 0.953665, 1, 1.02574, 1.03669, 9999, 9999, 9999, 1, 720, 9999, 900, 0
0, 22.00000, 7999.92, 1, 800.406, 0, -599.459, 834.646, 126.979, 34.2402, 0, 92.7384, -0.233019, 0.958976, 1, 1.16733, 1.03113, 9999, 9999, 9999, -0.2, 855, 9999, 900, 1
0, 23.00000, 7999.66, 0, 0, 1.27329E-014, 799.3, -1.0441E-014, 1.27329E-014, 2.29193E-015, 1.0441E-014, 0, -0.257607, 0.82, 1, 1.03956, 1.09653, 9999, 9999, 9999, 0.2, 0, 9999, 900, 0
0, 24.00000, 7999.66, 0, 0, 1.09139E-014, 799.475, -8.94943E-015, 1.09139E-014, 1.96451E-015, 8.94943E-015, 0, 0, 0.82, 1, 1.03957, 1.10344, 9999, 9999, 9999, 0.2, 0, 9999, 900, 0
