hour, t(sec), V1, VAngle1, V2, VAngle2, V3, VAngle3, I1, IAngle1, I2, IAngle2, I3, IAngle3
1, 0.00000, 7290.83, -34.9297, 7282.09, -154.88, 7291.69, 85.1582, 168.89, -28.1351, 155.987, -144.578, 163.714, 93.1616
2, 0.00000, 7291.17, -34.9221, 7282.43, -154.873, 7292.12, 85.1677, 159.656, -25.9348, 148.92, -142.525, 154.607, 95.5316
3, 0.00000, 7291.39, -34.917, 7282.66, -154.867, 7292.33, 85.1726, 162.279, -26.5595, 152.081, -143.458, 157.829, 94.6822
4, 0.00000, 7291.47, -34.9152, 7282.79, -154.864, 7292.4, 85.1744, 164.904, -27.1931, 153.519, -143.871, 160.899, 93.8765
5, 0.00000, 7291.52, -34.9141, 7282.8, -154.864, 7292.45, 85.1754, 161.781, -26.4118, 153.046, -143.736, 158.817, 94.4361
6, 0.00000, 7291.61, -34.9118, 7282.83, -154.863, 7292.48, 85.1765, 165.644, -27.346, 156.587, -144.74, 164.223, 93.0627
7, 0.00000, 7291.46, -34.9152, 7282.73, -154.865, 7292.38, 85.174, 166.891, -27.6482, 155.42, -144.407, 164.108, 93.0829
8, 0.00000, 7291.25, -34.92, 7282.6, -154.868, 7292.22, 85.1705, 174.304, -29.3264, 157.936, -145.098, 165.947, 92.6216
9, 0.00000, 7290.86, -34.9287, 7282.28, -154.876, 7291.86, 85.1622, 174.078, -29.3052, 157.618, -145.041, 166.304, 92.5093
10, 0.00000, 7290.67, -34.9332, 7281.86, -154.885, 7291.47, 85.1533, 172.144, -28.9257, 155.344, -144.447, 165.023, 92.7797
11, 0.00000, 7290.27, -34.9423, 7281.57, -154.892, 7291.12, 85.1452, 173.896, -29.3016, 155.853, -144.596, 168.658, 91.9174
12, 0.00000, 7289.96, -34.9492, 7281.16, -154.902, 7290.75, 85.1369, 180.039, -30.5497, 159.092, -145.463, 170.093, 91.6013
13, 0.00000, 7289.66, -34.9564, 7280.93, -154.907, 7290.44, 85.1295, 172.038, -28.9706, 150.905, -143.196, 162.767, 93.2656
14, 0.00000, 7289.39, -34.963, 7280.6, -154.915, 7290.07, 85.1207, 165.465, -27.5258, 145.536, -141.535, 157.755, 94.5147
15, 0.00000, 7289.37, -34.9634, 7280.62, -154.915, 7290.06, 85.1205, 162.477, -26.8238, 140.268, -139.697, 154.646, 95.3437
16, 0.00000, 7289.26, -34.9659, 7280.58, -154.915, 7290.01, 85.1194, 163.785, -27.1133, 144.988, -141.352, 158.16, 94.4076
17, 0.00000, 7289.29, -34.9655, 7280.56, -154.916, 7290.03, 85.1197, 158.1, -25.7074, 137.728, -138.746, 151.318, 96.2993
18, 0.00000, 7289.35, -34.9644, 7280.55, -154.917, 7290.07, 85.1203, 151.152, -23.7461, 133.39, -136.988, 146.894, 97.6653
19, 0.00000, 7289.42, -34.9623, 7280.48, -154.918, 7290.08, 85.1212, 165.214, -27.3875, 149.782, -142.867, 163.929, 92.9863
20, 0.00000, 7289.63, -34.9573, 7280.73, -154.912, 7290.31, 85.1267, 167.911, -27.9999, 151.025, -143.229, 167.008, 92.2644
21, 0.00000, 7289.53, -34.9599, 7280.71, -154.912, 7290.32, 85.1265, 161.411, -26.4817, 146.102, -141.706, 158.609, 94.3202
22, 0.00000, 7289.81, -34.9534, 7280.94, -154.907, 7290.63, 85.1336, 161.385, -26.4727, 145.3, -141.426, 156.923, 94.7806
23, 0.00000, 7290.29, -34.9427, 7281.46, -154.895, 7291.16, 85.1455, 152.37, -24.0543, 137.135, -138.49, 149.198, 96.9872
24, 0.00000, 7290.68, -34.9338, 7281.9, -154.885, 7291.55, 85.1543, 149.062, -23.0527, 134.365, -137.349, 144.347, 98.5719
25, 0.00000, 7290.99, -34.9271, 7282.27, -154.877, 7291.97, 85.1636, 139.565, -19.8906, 126.447, -133.751, 133.81, 102.503
26, 0.00000, 7291.26, -34.9211, 7282.5, -154.872, 7292.15, 85.1676, 135.182, -18.1773, 125.049, -133.045, 131.44, 103.535
27, 0.00000, 7291.42, -34.9171, 7282.73, -154.866, 7292.42, 85.1739, 140.765, -20.2872, 130.612, -135.731, 136.355, 101.509
28, 0.00000, 7291.6, -34.9133, 7282.84, -154.864, 7292.54, 85.1767, 135.889, -18.4388, 126.625, -133.83, 131.619, 103.489
29, 0.00000, 7291.66, -34.9119, 7282.89, -154.863, 7292.59, 85.178, 136.409, -18.6261, 128.396, -134.705, 134.109, 102.427
30, 0.00000, 7291.76, -34.9094, 7282.91, -154.862, 7292.64, 85.1791, 135.793, -18.3805, 129.196, -135.097, 134.379, 102.317
31, 0.00000, 7291.54, -34.9142, 7282.76, -154.866, 7292.44, 85.1746, 146.221, -22.1027, 136.041, -138.014, 142.131, 99.3959
32, 0.00000, 7291.29, -34.9198, 7282.64, -154.868, 7292.16, 85.1683, 150.224, -23.4064, 136.966, -138.401, 144.282, 98.611
33, 0.00000, 7290.89, -34.9287, 7282.14, -154.879, 7291.68, 85.1576, 157.666, -25.5054, 142.462, -140.448, 153.552, 95.7235
34, 0.00000, 7290.55, -34.9363, 7281.8, -154.887, 7291.33, 85.1498, 162.501, -26.7667, 145.552, -141.517, 157.686, 94.5648
35, 0.00000, 7290.16, -34.9454, 7281.34, -154.898, 7290.89, 85.1396, 161.961, -26.6324, 145.069, -141.362, 158.034, 94.4658
36, 0.00000, 7289.75, -34.9546, 7280.95, -154.907, 7290.56, 85.132, 163.134, -26.9451, 145.289, -141.447, 158.089, 94.4379
37, 0.00000, 7289.42, -34.9624, 7280.58, -154.915, 7290.2, 85.1238, 161.803, -26.6519, 141.527, -140.16, 154.73, 95.3267
38, 0.00000, 7289.11, -34.9693, 7280.25, -154.923, 7289.84, 85.1158, 166.615, -27.7996, 146.961, -142.017, 161.606, 93.5071
39, 0.00000, 7288.8, -34.9762, 7280.05, -154.928, 7289.55, 85.1091, 168.208, -28.1902, 145.441, -141.522, 161.292, 93.5702
40, 0.00000, 7288.71, -34.9785, 7279.78, -154.934, 7289.29, 85.103, 165.458, -27.5771, 141.666, -140.232, 156.083, 94.9225
41, 0.00000, 7288.55, -34.9826, 7279.7, -154.936, 7289.16, 85.0996, 154.814, -24.8605, 134.469, -137.484, 149.204, 96.8951
42, 0.00000, 7288.63, -34.9806, 7279.73, -154.935, 7289.19, 85.1004, 158.625, -25.8901, 136.966, -138.486, 151.1, 96.3279
43, 0.00000, 7288.77, -34.9771, 7279.81, -154.933, 7289.42, 85.1059, 161.773, -26.6594, 141.366, -140.123, 155.636, 95.0549
44, 0.00000, 7288.99, -34.9724, 7279.96, -154.93, 7289.65, 85.111, 156.661, -25.3255, 137.742, -138.767, 150.776, 96.4578
45, 0.00000, 7288.99, -34.9722, 7280.02, -154.928, 7289.73, 85.1129, 160.496, -26.3183, 141.109, -140.017, 155.064, 95.228
46, 0.00000, 7289.29, -34.9658, 7280.41, -154.92, 7290.07, 85.1205, 148.866, -23.0763, 132.523, -136.641, 144.767, 98.3485
47, 0.00000, 7289.76, -34.9548, 7280.9, -154.908, 7290.57, 85.1319, 150.062, -23.4295, 133.591, -137.072, 142.741, 99.0701
48, 0.00000, 7290.16, -34.9459, 7281.29, -154.9, 7290.92, 85.1397, 145.887, -22.1138, 130.661, -135.793, 140.053, 100.025
49, 0.00000, 7290.52, -34.9379, 7281.7, -154.89, 7291.33, 85.1488, 137.816, -19.2737, 124.701, -132.891, 132.158, 103.167
50, 0.00000, 7290.85, -34.9306, 7282.01, -154.883, 7291.67, 85.1565, 134.203, -17.8238, 122.335, -131.596, 129.165, 104.526
51, 0.00000, 7291.06, -34.9258, 7282.28, -154.877, 7291.89, 85.1615, 131.778, -16.8094, 120.626, -130.624, 126.613, 105.743
52, 0.00000, 7291.2, -34.9227, 7282.38, -154.875, 7292.08, 85.1658, 129.257, -15.6638, 119.447, -129.917, 125.101, 106.518
53, 0.00000, 7291.28, -34.9209, 7282.53, -154.872, 7292.16, 85.1674, 125.273, -13.7208, 116.715, -128.18, 122.47, 107.919
54, 0.00000, 7291.37, -34.9187, 7282.58, -154.87, 7292.21, 85.1686, 127.392, -14.7951, 117.747, -128.858, 123.313, 107.449
55, 0.00000, 7291.3, -34.9204, 7282.56, -154.871, 7292.13, 85.1669, 129.199, -15.6153, 121.069, -130.897, 127.761, 105.192
56, 0.00000, 7290.99, -34.927, 7282.3, -154.877, 7291.86, 85.161, 138.198, -19.4177, 124.447, -132.741, 131.159, 103.616
57, 0.00000, 7290.57, -34.9365, 7281.91, -154.885, 7291.43, 85.1514, 144.194, -21.5812, 128.016, -134.571, 138.731, 100.486
58, 0.00000, 7290.17, -34.9455, 7281.44, -154.896, 7290.96, 85.1409, 151.359, -23.8574, 132.023, -136.419, 144.53, 98.4186
59, 0.00000, 7289.74, -34.9551, 7281.01, -154.906, 7290.48, 85.1299, 159.141, -25.997, 139.493, -139.429, 150.161, 96.6487
60, 0.00000, 7289.35, -34.9639, 7280.62, -154.915, 7290.09, 85.1211, 159.225, -26.0268, 139.588, -139.479, 152.346, 95.9836
61, 0.00000, 7289.07, -34.9702, 7280.3, -154.922, 7289.78, 85.1142, 165.338, -27.5445, 143.704, -140.948, 155.956, 94.9679
62, 0.00000, 7288.73, -34.9781, 7279.93, -154.931, 7289.37, 85.1046, 163.319, -27.089, 139.369, -139.41, 154.962, 95.2148
63, 0.00000, 7288.59, -34.9813, 7279.7, -154.936, 7289.22, 85.1011, 164.342, -27.3443, 139.486, -139.454, 153.583, 95.6029
64, 0.00000, 7288.38, -34.9861, 7279.56, -154.939, 7289.02, 85.0966, 163.978, -27.2605, 138.276, -138.994, 152.424, 95.9321
65, 0.00000, 7288.36, -34.9865, 7279.46, -154.941, 7288.89, 85.0938, 164.758, -27.4461, 137.804, -138.81, 153.974, 95.4821
66, 0.00000, 7288.47, -34.9841, 7279.47, -154.941, 7289.01, 85.0962, 158.413, -25.8665, 134.451, -137.484, 149.453, 96.8064
67, 0.00000, 7288.57, -34.9818, 7279.56, -154.939, 7289.14, 85.0996, 165.765, -27.6373, 143.427, -140.85, 157.454, 94.5578
68, 0.00000, 7288.73, -34.978, 7279.89, -154.931, 7289.42, 85.1058, 164.005, -27.2107, 142.689, -140.585, 155.272, 95.1633
69, 0.00000, 7288.7, -34.9787, 7279.85, -154.932, 7289.48, 85.1072, 164.495, -27.3384, 144.075, -141.075, 155.134, 95.2004
70, 0.00000, 7289.04, -34.9713, 7280.19, -154.925, 7289.83, 85.1148, 153.087, -24.3768, 133.995, -137.276, 142.825, 99.0007
71, 0.00000, 7289.4, -34.9631, 7280.46, -154.918, 7290.08, 85.1205, 153.367, -24.4386, 135.27, -137.8, 144.729, 98.3613
72, 0.00000, 7289.68, -34.957, 7280.82, -154.91, 7290.44, 85.1285, 145.404, -22.0033, 129.014, -135.062, 137.99, 100.762
73, 0.00000, 7289.98, -34.9503, 7281.21, -154.902, 7290.84, 85.1376, 138.78, -19.6753, 124.355, -132.74, 133.751, 102.448
74, 0.00000, 7290.26, -34.944, 7281.43, -154.897, 7291.06, 85.1427, 137.611, -19.2264, 124.144, -132.626, 132.54, 102.971
75, 0.00000, 7290.54, -34.9376, 7281.7, -154.89, 7291.29, 85.1478, 135.687, -18.4714, 122.827, -131.902, 129.553, 104.312
76, 0.00000, 7290.65, -34.9351, 7281.85, -154.887, 7291.48, 85.152, 131.064, -16.5352, 119.068, -129.714, 126.021, 105.997
77, 0.00000, 7290.78, -34.932, 7281.96, -154.885, 7291.56, 85.1541, 132.203, -17.0077, 120.543, -130.596, 128.458, 104.82
78, 0.00000, 7290.98, -34.9275, 7282.06, -154.882, 7291.7, 85.1573, 133.868, -17.7225, 121.317, -131.045, 128.795, 104.663
79, 0.00000, 7291.06, -34.9256, 7282.31, -154.877, 7291.89, 85.1617, 136.52, -18.774, 123.217, -132.093, 131.231, 103.569
80, 0.00000, 7290.9, -34.9291, 7281.99, -154.884, 7291.61, 85.1553, 137.347, -19.1114, 124.232, -132.663, 132.419, 103.035
81, 0.00000, 7290.46, -34.9393, 7281.57, -154.893, 7291.19, 85.1457, 139.234, -19.8487, 123.55, -132.296, 132.773, 102.864
82, 0.00000, 7289.94, -34.9511, 7281.03, -154.906, 7290.65, 85.1335, 142.494, -21.0252, 126.589, -133.899, 137.203, 101.046
83, 0.00000, 7289.48, -34.9611, 7280.5, -154.918, 7290.16, 85.1226, 153.363, -24.4393, 133.302, -136.977, 146.752, 97.6848
84, 0.00000, 7289.45, -34.962, 7280.52, -154.917, 7290.22, 85.124, 152.866, -24.2832, 133.207, -136.928, 147.166, 97.5578
85, 0.00000, 7289.53, -34.9602, 7280.6, -154.916, 7290.21, 85.1236, 150.34, -23.5728, 129.404, -135.243, 142.718, 99.02
86, 0.00000, 7289.58, -34.959, 7280.78, -154.911, 7290.36, 85.127, 148.134, -22.8764, 130.211, -135.619, 142.578, 99.0787
87, 0.00000, 7289.49, -34.9611, 7280.68, -154.914, 7290.22, 85.1236, 147.453, -22.6643, 130.96, -135.967, 141.695, 99.3917
88, 0.00000, 7289.66, -34.957, 7280.77, -154.911, 7290.33, 85.1264, 153.7, -24.5121, 135.422, -137.849, 147.473, 97.4738
89, 0.00000, 7289.7, -34.9563, 7280.83, -154.91, 7290.35, 85.127, 150.741, -23.6331, 134.803, -137.607, 148.934, 97.0099
90, 0.00000, 7289.81, -34.9535, 7280.95, -154.907, 7290.54, 85.1315, 156.612, -25.2653, 140.348, -139.72, 151.487, 96.2873
91, 0.00000, 7289.94, -34.9503, 7281.11, -154.903, 7290.69, 85.1351, 161.741, -26.5708, 143.932, -140.964, 157.05, 94.7339
92, 0.00000, 7290.02, -34.9485, 7281.16, -154.902, 7290.71, 85.1355, 161.871, -26.5957, 144.797, -141.255, 157.08, 94.7342
93, 0.00000, 7289.97, -34.9495, 7281.14, -154.903, 7290.67, 85.1344, 163.269, -26.9583, 145.741, -141.575, 156.285, 94.9483
94, 0.00000, 7290.07, -34.9474, 7281.23, -154.9, 7290.84, 85.1384, 161.53, -26.5137, 145.496, -141.493, 156.201, 94.9775
95, 0.00000, 7290.29, -34.9427, 7281.39, -154.897, 7291.03, 85.1427, 155.156, -24.8348, 142.875, -140.618, 150.923, 96.4907
96, 0.00000, 7290.43, -34.9392, 7281.6, -154.892, 7291.21, 85.1467, 157.232, -25.4003, 142.254, -140.377, 151.014, 96.468
97, 0.00000, 7290.76, -34.9318, 7281.9, -154.885, 7291.45, 85.1522, 153.08, -24.2542, 138.355, -138.946, 146.732, 97.7914
98, 0.00000, 7290.93, -34.9282, 7282.06, -154.882, 7291.69, 85.1574, 143.727, -21.3501, 130.445, -135.67, 139.539, 100.248
99, 0.00000, 7291.12, -34.9239, 7282.24, -154.877, 7291.88, 85.1618, 146.925, -22.3708, 135.996, -138.029, 142.523, 99.2196
100, 0.00000, 7291.24, -34.9211, 7282.44, -154.873, 7292.15, 85.1679, 142.015, -20.7437, 131.71, -136.234, 137.383, 101.098
101, 0.00000, 7291.31, -34.9196, 7282.53, -154.871, 7292.19, 85.1688, 143.776, -21.3171, 134.096, -137.247, 140.839, 99.8244
102, 0.00000, 7291.4, -34.9171, 7282.64, -154.868, 7292.31, 85.1721, 153.298, -24.2611, 141.741, -140.173, 149.419, 96.9929
103, 0.00000, 7291.45, -34.9158, 7282.61, -154.869, 7292.31, 85.1721, 158.108, -25.5537, 146.9, -141.913, 155.527, 95.2322
104, 0.00000, 7291.24, -34.92, 7282.37, -154.874, 7292.08, 85.1674, 175.589, -29.5785, 162.185, -146.218, 170.229, 91.6473
105, 0.00000, 7291.03, -34.925, 7282.21, -154.877, 7291.9, 85.1633, 173.813, -29.2313, 158.132, -145.172, 167.543, 92.2324
106, 0.00000, 7290.8, -34.93, 7281.95, -154.883, 7291.62, 85.1569, 182.138, -30.8648, 164.041, -146.66, 175.058, 90.6069
107, 0.00000, 7290.58, -34.935, 7281.76, -154.887, 7291.33, 85.1506, 186.404, -31.6302, 169.139, -147.863, 182.424, 89.1566
108, 0.00000, 7290.58, -34.935, 7281.78, -154.887, 7291.51, 85.1546, 186.642, -31.6648, 169.132, -147.84, 179.536, 89.732
109, 0.00000, 7290.26, -34.942, 7281.52, -154.893, 7291.11, 85.1456, 192.062, -32.5745, 173.107, -148.704, 187.326, 88.2889
110, 0.00000, 7289.94, -34.9494, 7281.03, -154.904, 7290.69, 85.136, 190.546, -32.3733, 171.415, -148.38, 183.851, 88.8791
111, 0.00000, 7289.63, -34.9565, 7280.65, -154.913, 7290.27, 85.1264, 195.434, -33.1977, 172.754, -148.676, 186.36, 88.4077
112, 0.00000, 7289.23, -34.9655, 7280.26, -154.922, 7289.91, 85.1183, 201.719, -34.146, 177.934, -149.734, 192.217, 87.4158
113, 0.00000, 7289.29, -34.964, 7280.31, -154.921, 7289.98, 85.1199, 199.552, -33.8104, 178.453, -149.849, 194.356, 87.0635
114, 0.00000, 7289.32, -34.9634, 7280.4, -154.918, 7289.96, 85.1195, 199.226, -34.0641, 178.432, -149.841, 194.81, 86.9631
115, 0.00000, 7289.96, -34.9486, 7281.12, -154.902, 7290.68, 85.136, 200.489, -34.2194, 182.233, -150.543, 196.921, 86.6557
116, 0.00000, 7289.97, -34.9485, 7281.15, -154.901, 7290.72, 85.1368, 194.54, -33.3139, 177.052, -149.549, 191.619, 87.5104
117, 0.00000, 7289.86, -34.9512, 7281.12, -154.902, 7290.69, 85.1358, 186.353, -31.9777, 170.986, -148.3, 178.34, 89.9352
118, 0.00000, 7290.02, -34.9477, 7281.19, -154.9, 7290.85, 85.1394, 182.779, -31.3248, 168.268, -147.7, 178.948, 89.8074
119, 0.00000, 7290.25, -34.9424, 7281.47, -154.894, 7291.14, 85.1458, 180.192, -30.8546, 164.622, -146.843, 172.276, 91.1881
120, 0.00000, 7290.6, -34.935, 7281.86, -154.885, 7291.45, 85.1529, 172.165, -28.8938, 157.982, -145.151, 166.255, 92.5206
121, 0.00000, 7290.8, -34.9303, 7282, -154.882, 7291.64, 85.157, 168.299, -28.0523, 153.967, -144.041, 161.369, 93.7047
122, 0.00000, 7291.03, -34.9256, 7282.23, -154.877, 7291.9, 85.1626, 158.205, -25.5904, 145.93, -141.585, 152.518, 96.0952
123, 0.00000, 7291.23, -34.921, 7282.47, -154.872, 7292.12, 85.1677, 156.938, -25.2548, 145.771, -141.539, 151.289, 96.4603
124, 0.00000, 7291.35, -34.9184, 7282.57, -154.87, 7292.26, 85.1707, 149.693, -23.2004, 139.787, -139.467, 145.066, 98.3945
125, 0.00000, 7291.39, -34.9174, 7282.63, -154.868, 7292.28, 85.1711, 152.507, -24.0476, 140.41, -139.686, 146.121, 98.0419
126, 0.00000, 7291.66, -34.9112, 7282.84, -154.863, 7292.53, 85.177, 154.004, -24.4237, 143.24, -140.672, 150.121, 96.8163
127, 0.00000, 7291.63, -34.9116, 7282.75, -154.865, 7292.46, 85.1756, 161.292, -26.3298, 150.816, -143.095, 156.924, 94.908
128, 0.00000, 7291.46, -34.9156, 7282.58, -154.869, 7292.25, 85.171, 162.245, -26.5818, 148.878, -142.504, 159.089, 94.2958
129, 0.00000, 7290.97, -34.926, 7282.1, -154.88, 7291.85, 85.1623, 181.965, -30.8329, 164.852, -146.86, 174.745, 90.6766
130, 0.00000, 7290.57, -34.9353, 7281.67, -154.89, 7291.34, 85.1505, 177.408, -29.9675, 162.32, -146.272, 173.032, 91.009
131, 0.00000, 7290.17, -34.9443, 7281.21, -154.9, 7290.83, 85.1392, 191.311, -32.481, 171.785, -148.443, 184.973, 88.6881
132, 0.00000, 7289.67, -34.9557, 7280.78, -154.91, 7290.42, 85.1296, 190.574, -32.3908, 168.975, -147.835, 182.633, 89.0932
133, 0.00000, 7289.3, -34.9642, 7280.33, -154.92, 7289.97, 85.1194, 191.015, -32.4739, 172.564, -148.657, 185.282, 88.5956
134, 0.00000, 7288.9, -34.9732, 7279.94, -154.929, 7289.53, 85.1094, 193.623, -32.9429, 169.666, -148.027, 184.307, 88.7447
135, 0.00000, 7288.6, -34.9802, 7279.62, -154.937, 7289.29, 85.1039, 193.204, -32.8669, 171.407, -148.422, 186.225, 88.3985
136, 0.00000, 7288.5, -34.9827, 7279.48, -154.94, 7289.23, 85.102, 181.296, -30.8153, 162.221, -146.312, 174.008, 90.7269
137, 0.00000, 7288.42, -34.9843, 7279.53, -154.939, 7289.16, 85.1006, 188.497, -32.1063, 165.727, -147.138, 178.186, 89.8915
138, 0.00000, 7288.48, -34.9829, 7279.54, -154.939, 7289.05, 85.0983, 194.157, -33.0249, 170.017, -148.109, 186.67, 88.313
139, 0.00000, 7288.49, -34.9829, 7279.6, -154.937, 7289.19, 85.1013, 188.737, -32.1382, 165.719, -147.136, 181.646, 89.2183
140, 0.00000, 7288.75, -34.977, 7279.86, -154.931, 7289.55, 85.1096, 185.524, -31.5583, 164.622, -146.864, 178.371, 89.8678
141, 0.00000, 7288.62, -34.9797, 7279.79, -154.933, 7289.38, 85.1058, 190.268, -32.4044, 167.462, -147.545, 181.767, 89.1992
142, 0.00000, 7288.88, -34.9742, 7280.11, -154.926, 7289.74, 85.1136, 181.193, -30.8113, 158.002, -145.207, 171.285, 91.2987
143, 0.00000, 7289.23, -34.9663, 7280.4, -154.919, 7290.05, 85.1207, 175.693, -29.7062, 157.015, -144.939, 167.76, 92.1049
144, 0.00000, 7289.65, -34.957, 7280.82, -154.91, 7290.53, 85.1315, 165.943, -27.5873, 148.498, -142.462, 160.012, 93.9653
145, 0.00000, 7289.92, -34.951, 7281.12, -154.903, 7290.78, 85.1369, 158.114, -25.6559, 141.831, -140.244, 152.429, 96.0258
146, 0.00000, 7290.27, -34.9431, 7281.5, -154.894, 7291.08, 85.1436, 156.342, -25.1689, 140.147, -139.612, 149.052, 97.0592
147, 0.00000, 7290.49, -34.9384, 7281.7, -154.89, 7291.31, 85.1488, 146.817, -22.377, 132.383, -136.531, 141.722, 99.4539
148, 0.00000, 7290.63, -34.9347, 7281.8, -154.887, 7291.44, 85.1519, 152.931, -24.1855, 140.52, -139.757, 148.986, 97.0942
149, 0.00000, 7290.78, -34.9315, 7281.95, -154.884, 7291.57, 85.1548, 151.822, -23.8753, 138.853, -139.138, 147.171, 97.6587
150, 0.00000, 7290.86, -34.9295, 7281.99, -154.883, 7291.6, 85.1559, 156.679, -25.2169, 143.7, -140.876, 153.821, 95.6644
151, 0.00000, 7290.69, -34.9327, 7281.85, -154.886, 7291.43, 85.1524, 172.377, -28.9501, 156.431, -144.738, 167.213, 92.2779
152, 0.00000, 7290.39, -34.9395, 7281.62, -154.891, 7291.2, 85.1473, 181.718, -30.8285, 162.164, -146.224, 173.014, 91.0016
153, 0.00000, 7290.02, -34.9476, 7281.22, -154.9, 7290.82, 85.1387, 189.582, -32.2531, 168.654, -147.785, 179.322, 89.7105
154, 0.00000, 7289.64, -34.9562, 7280.81, -154.909, 7290.3, 85.127, 195.852, -33.3047, 170.273, -148.155, 183.966, 88.8119
155, 0.00000, 7289.2, -34.9662, 7280.39, -154.919, 7289.95, 85.1189, 193.986, -32.9995, 169.916, -148.074, 182.301, 89.1268
156, 0.00000, 7288.8, -34.9756, 7280.04, -154.927, 7289.5, 85.1086, 193.838, -33.0105, 169.218, -147.95, 182.682, 89.0237
157, 0.00000, 7288.43, -34.9839, 7279.55, -154.938, 7289.05, 85.0982, 192.767, -32.8651, 166.992, -147.463, 180.92, 89.3315
158, 0.00000, 7288.16, -34.9902, 7279.37, -154.942, 7288.79, 85.0924, 193.062, -32.9151, 166.56, -147.365, 182.966, 88.9381
159, 0.00000, 7287.93, -34.9955, 7279.12, -154.948, 7288.64, 85.0888, 189.178, -32.2922, 163.574, -146.673, 178.959, 89.6827
160, 0.00000, 7287.79, -34.9989, 7278.92, -154.953, 7288.44, 85.0842, 188.457, -32.1777, 161.028, -146.039, 177.91, 89.8797
