hour, t(sec), V1, VAngle1, V2, VAngle2, V3, VAngle3, I1, IAngle1, I2, IAngle2, I3, IAngle3
1, 0.00000, 7559.11, -31.677, 7554.49, -151.81, 7563.4, 88.3396, 149.381, -26.6118, 163.147, -147.496, 147.794, 94.8902
2, 0.00000, 7573.2, -31.4966, 7568.71, -151.615, 7578.86, 88.5283, 133.661, -22.4852, 145.933, -143.739, 131.756, 99.7019
3, 0.00000, 7589.02, -31.3027, 7584.57, -151.403, 7597.45, 88.7346, 117.717, -16.6775, 128.117, -138.441, 115.745, 106.986
4, 0.00000, 7599.68, -31.1937, 7594.21, -151.29, 7607.08, 88.8419, 109.68, -12.0385, 119.181, -134.638, 108.349, 111.536
5, 0.00000, 7608.11, -31.1184, 7600.84, -151.217, 7612.49, 88.9084, 104.818, -8.01281, 113.669, -131.756, 104.071, 114.433
6, 0.00000, 7613.35, -31.067, 7605.97, -151.162, 7616.12, 88.9558, 101.73, -5.25015, 109.817, -129.337, 101.083, 116.555
7, 0.00000, 7615.14, -31.0422, 7608.81, -151.131, 7618.22, 88.9831, 100.159, -4.15328, 107.692, -127.882, 99.3638, 117.843
8, 0.00000, 7611.38, -31.0932, 7603.92, -151.188, 7614.9, 88.9374, 103.453, -6.44343, 111.736, -130.369, 102.246, 115.782
9, 0.00000, 7586.7, -31.3307, 7582.31, -151.43, 7596.75, 88.7248, 119.943, -17.6839, 130.342, -139.227, 116.371, 106.685
10, 0.00000, 7566.74, -31.5813, 7562.05, -151.704, 7573.33, 88.4611, 140.999, -24.5436, 153.758, -145.563, 137.233, 97.8665
11, 0.00000, 7549.88, -31.7988, 7544.81, -151.939, 7555.7, 88.2383, 160.342, -28.9371, 174.976, -149.604, 156.576, 92.8837
12, 0.00000, 7528.68, -32.075, 7522.87, -152.238, 7534.75, 87.9609, 185.808, -33.1801, 202.834, -153.535, 181.693, 88.3921
13, 0.00000, 7501.89, -32.4249, 7495.04, -152.617, 7508.11, 87.6091, 218.95, -37.1526, 238.971, -157.243, 214.575, 84.1746
14, 0.00000, 7493.62, -32.5334, 7486.38, -152.736, 7499.71, 87.4981, 229.35, -38.1526, 250.379, -158.189, 225.114, 83.0922
15, 0.00000, 7487.14, -32.6181, 7479.61, -152.829, 7492.99, 87.4094, 237.497, -38.8768, 259.344, -158.877, 233.59, 82.2908
16, 0.00000, 7471.8, -32.8191, 7463.64, -153.047, 7477.36, 87.2033, 256.937, -40.422, 280.514, -160.336, 253.375, 80.6227
17, 0.00000, 7479.23, -32.7212, 7471.35, -152.942, 7484.63, 87.2995, 247.442, -39.6995, 270.304, -159.661, 244.147, 81.3674
18, 0.00000, 7504.01, -32.3963, 7497.11, -152.591, 7509.14, 87.6233, 216.167, -36.8666, 236.397, -157.015, 213.323, 84.3155
19, 0.00000, 7520.58, -32.1792, 7514.35, -152.356, 7525.47, 87.8394, 195.542, -34.4991, 213.923, -154.813, 193.053, 86.7655
20, 0.00000, 7530.19, -32.0536, 7524.37, -152.22, 7534.85, 87.9634, 183.758, -32.8919, 201.04, -153.322, 181.588, 88.4075
21, 0.00000, 7538.04, -31.951, 7532.56, -152.108, 7542.48, 88.0642, 174.228, -31.4228, 190.592, -151.96, 172.368, 89.8958
22, 0.00000, 7543.68, -31.8776, 7538.39, -152.029, 7547.96, 88.1368, 167.471, -30.2705, 183.222, -150.902, 165.8, 91.0653
23, 0.00000, 7552, -31.7692, 7547.14, -151.91, 7556.19, 88.2453, 157.62, -28.3962, 172.248, -149.146, 156.091, 92.9936
24, 0.00000, 7567.98, -31.5625, 7563.61, -151.686, 7572.52, 88.4549, 139.33, -24.1022, 152.053, -145.185, 137.89, 97.5937
25, 0.00000, 7585.21, -31.3466, 7580.99, -151.45, 7593.08, 88.6851, 121.189, -18.1852, 131.9, -139.756, 119.433, 105.091
26, 0.00000, 7604.56, -31.1523, 7597.66, -151.251, 7609.25, 88.8708, 106.991, -9.74782, 116.188, -133.188, 106.489, 112.68
27, 0.00000, 7615.84, -31.0317, 7609.85, -151.119, 7618.26, 88.9839, 99.4844, -3.65733, 106.907, -127.362, 99.3564, 117.85
28, 0.00000, 7620.28, -30.9705, 7615.45, -151.05, 7622.71, 89.0454, 95.7511, -0.720405, 102.328, -124.161, 95.6609, 120.823
29, 0.00000, 7621.21, -30.958, 7616.23, -151.038, 7623.74, 89.0601, 95.0125, -0.0945692, 101.577, -123.661, 94.8111, 121.573
30, 0.00000, 7621.2, -30.9582, 7616.24, -151.038, 7623.72, 89.0598, 95.0243, -0.104535, 101.569, -123.655, 94.8233, 121.561
31, 0.00000, 7613.55, -31.0637, 7606.55, -151.159, 7616.08, 88.9541, 101.514, -5.10371, 109.603, -129.094, 101.225, 116.494
32, 0.00000, 7602.4, -31.1791, 7595.21, -151.281, 7607.84, 88.8502, 108.867, -10.8822, 118.471, -134.267, 107.891, 111.906
33, 0.00000, 7604.87, -31.1493, 7598.18, -151.245, 7610.69, 88.8847, 106.792, -9.64035, 115.788, -132.931, 105.578, 113.426
34, 0.00000, 7593.11, -31.2634, 7588.34, -151.359, 7602.2, 88.783, 114.777, -15.0258, 124.613, -137.002, 112.339, 109.117
35, 0.00000, 7584.41, -31.3576, 7580.19, -151.457, 7593.94, 88.6913, 122.101, -18.5593, 132.61, -139.998, 118.904, 105.444
36, 0.00000, 7569.53, -31.5446, 7565.21, -151.661, 7576.17, 88.4931, 137.814, -23.6844, 149.986, -144.711, 134.595, 98.7795
37, 0.00000, 7545.98, -31.8484, 7541.04, -151.991, 7551.41, 88.1814, 164.849, -29.7964, 179.745, -150.37, 161.691, 91.8443
38, 0.00000, 7526.37, -32.1041, 7520.73, -152.268, 7531.95, 87.9239, 188.523, -33.5626, 205.65, -153.871, 185.162, 87.8754
39, 0.00000, 7512.42, -32.2862, 7506.24, -152.466, 7518, 87.7396, 205.714, -35.7253, 224.422, -155.892, 202.337, 85.5833
40, 0.00000, 7501.48, -32.4291, 7494.96, -152.62, 7507.08, 87.5951, 219.348, -37.1919, 239.175, -157.256, 215.957, 84.0313
41, 0.00000, 7491.15, -32.5644, 7484.14, -152.768, 7496.59, 87.4567, 232.322, -38.4239, 253.435, -158.426, 229.119, 82.7091
42, 0.00000, 7489.24, -32.5893, 7482.04, -152.797, 7494.42, 87.4284, 234.707, -38.637, 256.226, -158.642, 231.838, 82.4537
43, 0.00000, 7482.03, -32.684, 7474.48, -152.901, 7487.1, 87.3317, 243.845, -39.408, 266.234, -159.373, 241.094, 81.6305
44, 0.00000, 7486.26, -32.6281, 7478.88, -152.841, 7491.12, 87.3851, 238.432, -38.9601, 260.432, -158.957, 236.005, 82.0749
45, 0.00000, 7500.28, -32.444, 7493.48, -152.641, 7505.08, 87.5697, 220.736, -37.3354, 241.183, -157.434, 218.429, 83.7689
46, 0.00000, 7508.38, -32.3381, 7501.9, -152.527, 7513.14, 87.6762, 210.612, -36.2784, 230.174, -156.448, 208.366, 84.87
47, 0.00000, 7524.13, -32.1319, 7518.35, -152.302, 7528.69, 87.8818, 191.094, -33.9187, 208.804, -154.242, 189.146, 87.3024
48, 0.00000, 7543.11, -31.8845, 7538, -152.035, 7547.39, 88.1291, 168.106, -30.386, 183.704, -150.974, 166.503, 90.933
49, 0.00000, 7567.95, -31.5629, 7563.56, -151.687, 7572.42, 88.4537, 139.361, -24.1104, 152.13, -145.202, 137.999, 97.5627
50, 0.00000, 7583.27, -31.3699, 7579.08, -151.475, 7590.6, 88.6595, 123.087, -18.929, 134.011, -140.429, 121.357, 104.082
51, 0.00000, 7600.53, -31.1877, 7594.77, -151.284, 7606.96, 88.8411, 109.308, -11.6414, 118.707, -134.421, 108.439, 111.463
52, 0.00000, 7614.73, -31.0471, 7608.36, -151.137, 7617.26, 88.9701, 100.462, -4.3633, 108.1, -128.151, 100.216, 117.214
53, 0.00000, 7619.87, -30.9761, 7615.02, -151.056, 7622.38, 89.0408, 96.0879, -1.00338, 102.717, -124.423, 95.9231, 120.597
54, 0.00000, 7619.22, -30.985, 7614.32, -151.066, 7621.72, 89.0315, 96.623, -1.44577, 103.378, -124.857, 96.4671, 120.137
55, 0.00000, 7613.86, -31.0592, 7607.38, -151.151, 7616.48, 88.9592, 101.242, -4.91426, 109.111, -128.691, 100.899, 116.723
56, 0.00000, 7600.89, -31.1913, 7594.5, -151.29, 7607.23, 88.8411, 109.666, -11.5694, 119.164, -134.561, 108.501, 111.563
57, 0.00000, 7605.79, -31.1388, 7599.22, -151.233, 7611.4, 88.8937, 106.087, -9.15748, 114.856, -132.456, 104.995, 113.81
58, 0.00000, 7604.04, -31.162, 7597.42, -151.257, 7609.97, 88.8737, 107.729, -10.1041, 116.724, -133.299, 106.332, 112.994
59, 0.00000, 7588.5, -31.309, 7584.4, -151.405, 7597.85, 88.7375, 118.24, -16.9168, 128.238, -138.48, 115.497, 107.15
60, 0.00000, 7582.96, -31.3746, 7578.93, -151.475, 7592.07, 88.6714, 123.493, -19.101, 134.008, -140.439, 120.403, 104.662
61, 0.00000, 7576.35, -31.4578, 7572.21, -151.566, 7584.26, 88.5843, 130.404, -21.4791, 141.705, -142.648, 127.172, 101.614
62, 0.00000, 7566.81, -31.5786, 7562.55, -151.698, 7572.58, 88.4533, 140.766, -24.4867, 153.219, -145.445, 137.951, 97.6118
63, 0.00000, 7557.55, -31.6979, 7553.03, -151.828, 7562.69, 88.33, 151.275, -27.0423, 164.838, -147.817, 148.561, 94.6926
64, 0.00000, 7546.3, -31.844, 7541.32, -151.988, 7551.36, 88.1811, 164.433, -29.7198, 179.439, -150.322, 161.75, 91.834
65, 0.00000, 7534.71, -31.9948, 7529.27, -152.153, 7539.7, 88.0269, 178.307, -32.0701, 194.745, -152.517, 175.73, 89.3349
66, 0.00000, 7523.24, -32.1442, 7517.39, -152.315, 7528.02, 87.8724, 192.254, -34.0674, 210.052, -154.379, 189.997, 87.1888
67, 0.00000, 7514.53, -32.2579, 7508.32, -152.439, 7519.3, 87.7573, 202.989, -35.4085, 221.818, -155.632, 200.747, 85.7809
68, 0.00000, 7516.43, -32.2326, 7510.38, -152.411, 7521.05, 87.7806, 200.592, -35.1249, 219.138, -155.361, 198.581, 86.0501
69, 0.00000, 7529.42, -32.0627, 7523.83, -152.228, 7533.75, 87.9487, 184.608, -33.0166, 201.773, -153.411, 182.981, 88.1979
70, 0.00000, 7536.14, -31.9753, 7530.78, -152.133, 7540.41, 88.0368, 176.47, -31.7843, 192.893, -152.272, 174.89, 89.4734
71, 0.00000, 7543.46, -31.8799, 7538.36, -152.03, 7547.64, 88.1324, 167.684, -30.3096, 183.273, -150.909, 166.21, 90.9894
72, 0.00000, 7561.32, -31.6481, 7556.79, -151.779, 7565.36, 88.3654, 146.813, -26.0087, 160.356, -146.947, 145.567, 95.4382
73, 0.00000, 7578.74, -31.4259, 7574.6, -151.536, 7585.36, 88.6009, 127.702, -20.5936, 139.09, -141.926, 125.915, 102.034
74, 0.00000, 7599.64, -31.1932, 7594.14, -151.29, 7606.76, 88.8383, 109.624, -12.036, 119.183, -134.67, 108.608, 111.37
75, 0.00000, 7615.43, -31.0377, 7609.15, -151.128, 7617.94, 88.9796, 99.8559, -3.93353, 107.479, -127.733, 99.6166, 117.657
76, 0.00000, 7620.78, -30.9639, 7615.83, -151.044, 7623.35, 89.0545, 95.3591, -0.392894, 101.942, -123.909, 95.1248, 121.292
77, 0.00000, 7625.56, -30.8983, 7621.04, -150.972, 7628.09, 89.1201, 91.657, 3.05112, 97.4394, -120.514, 91.5555, 124.77
78, 0.00000, 7627.3, -30.8743, 7622.98, -150.945, 7629.82, 89.1445, 90.3899, 4.37301, 95.8751, -119.174, 90.3004, 126.119
79, 0.00000, 7626.94, -30.8793, 7622.58, -150.951, 7629.47, 89.1396, 90.6465, 4.09705, 96.2057, -119.454, 90.551, 125.842
80, 0.00000, 7625.05, -30.9056, 7620.57, -150.978, 7627.91, 89.1173, 92.0629, 2.6465, 97.7923, -120.807, 91.6892, 124.627
81, 0.00000, 7614.45, -31.0513, 7608.41, -151.139, 7617.58, 88.9738, 100.754, -4.57417, 108.312, -128.141, 99.9408, 117.413
82, 0.00000, 7584.21, -31.3592, 7580.06, -151.46, 7593.33, 88.6858, 122.222, -18.6196, 132.821, -140.052, 119.325, 105.195
83, 0.00000, 7560.73, -31.6569, 7556.21, -151.785, 7565.95, 88.3716, 147.63, -26.2034, 160.93, -147.062, 144.944, 95.6108
84, 0.00000, 7535.27, -31.9878, 7529.88, -152.143, 7540.69, 88.0399, 177.673, -31.9735, 193.897, -152.407, 174.509, 89.532
85, 0.00000, 7518.24, -32.2103, 7512.22, -152.385, 7523.79, 87.8162, 198.517, -34.867, 216.661, -155.099, 195.169, 86.4892
86, 0.00000, 7504.8, -32.3861, 7498.31, -152.574, 7510.54, 87.6409, 215.233, -36.7685, 234.766, -156.866, 211.615, 84.5039
87, 0.00000, 7491.5, -32.5604, 7484.47, -152.763, 7497.31, 87.466, 231.948, -38.3894, 252.958, -158.389, 228.197, 82.796
88, 0.00000, 7482.2, -32.6824, 7474.73, -152.896, 7487.95, 87.3426, 243.711, -39.3971, 265.819, -159.345, 239.998, 81.7225
89, 0.00000, 7480.13, -32.7093, 7472.51, -152.926, 7485.71, 87.3133, 246.31, -39.6083, 268.761, -159.552, 242.815, 81.4806
90, 0.00000, 7475, -32.7766, 7467.09, -153.001, 7480.22, 87.2409, 252.805, -40.1122, 276.006, -160.041, 249.793, 80.9086
91, 0.00000, 7480.31, -32.7064, 7472.65, -152.925, 7485.49, 87.3106, 246.014, -39.5862, 268.62, -159.543, 243.106, 81.4563
92, 0.00000, 7486.48, -32.625, 7479.16, -152.837, 7491.44, 87.3893, 238.147, -38.9367, 260.048, -158.93, 235.594, 82.1107
93, 0.00000, 7501.66, -32.4259, 7494.91, -152.622, 7506.43, 87.5876, 218.997, -37.1613, 239.318, -157.273, 216.738, 83.9465
94, 0.00000, 7515.32, -32.2471, 7509.08, -152.429, 7519.79, 87.7642, 201.958, -35.2905, 220.84, -155.537, 200.125, 85.8549
95, 0.00000, 7531.82, -32.0314, 7526.3, -152.194, 7536.13, 87.9803, 181.686, -32.5886, 198.606, -153.018, 180.072, 88.6414
96, 0.00000, 7546.86, -31.8356, 7541.87, -151.982, 7550.94, 88.1761, 163.641, -29.573, 178.853, -150.23, 162.284, 91.7337
97, 0.00000, 7568.76, -31.5525, 7564.4, -151.675, 7573.36, 88.464, 138.461, -23.8643, 151.12, -144.973, 137.141, 97.8612
98, 0.00000, 7587.69, -31.3176, 7583.27, -151.42, 7595.61, 88.7147, 118.883, -17.2012, 129.459, -138.933, 117.213, 106.183
99, 0.00000, 7606.06, -31.1347, 7599.36, -151.232, 7611.05, 88.8902, 105.776, -8.98197, 114.776, -132.418, 105.253, 113.625
100, 0.00000, 7616.74, -31.0195, 7610.92, -151.106, 7619.28, 88.9979, 98.7198, -3.09288, 106.041, -126.774, 98.4834, 118.516
101, 0.00000, 7621.95, -30.9479, 7617.07, -151.026, 7624.44, 89.0699, 94.4258, 0.424386, 100.813, -123.126, 94.2585, 122.072
102, 0.00000, 7623.13, -30.9318, 7618.35, -151.008, 7625.79, 89.0877, 93.5102, 1.2574, 99.6713, -122.293, 93.2921, 123.036
103, 0.00000, 7619.92, -30.976, 7614.87, -151.057, 7622.65, 89.0447, 96.0764, -1.00155, 102.807, -124.5, 95.6834, 120.804
104, 0.00000, 7613.72, -31.0618, 7607.11, -151.153, 7616.87, 88.9644, 101.414, -5.03814, 109.312, -128.806, 100.531, 116.986
105, 0.00000, 7614.4, -31.0531, 7607.69, -151.144, 7617.92, 88.979, 100.853, -4.65337, 108.648, -128.463, 99.5893, 117.675
106, 0.00000, 7609.76, -31.1152, 7601.27, -151.217, 7613.6, 88.9211, 104.903, -7.39724, 113.764, -131.608, 103.27, 115.061
107, 0.00000, 7582.67, -31.3801, 7578.05, -151.485, 7592.42, 88.6743, 123.925, -19.2574, 134.978, -140.731, 120.143, 104.829
108, 0.00000, 7557.52, -31.6998, 7552.49, -151.835, 7563.08, 88.3353, 151.435, -27.0744, 165.457, -147.933, 148.051, 94.8153
109, 0.00000, 7533.92, -32.0066, 7528.08, -152.167, 7539.7, 88.027, 179.411, -32.2398, 196.15, -152.703, 175.643, 89.3438
110, 0.00000, 7509.76, -32.3221, 7502.98, -152.509, 7515.62, 87.7086, 209.112, -36.1098, 228.612, -156.302, 205.204, 85.2347
111, 0.00000, 7495.93, -32.5033, 7488.65, -152.705, 7501.83, 87.5262, 226.442, -37.8795, 247.431, -157.951, 222.453, 83.3584
112, 0.00000, 7481.57, -32.6918, 7473.7, -152.909, 7487.5, 87.3368, 244.606, -39.4664, 267.16, -159.439, 240.522, 81.6775
113, 0.00000, 7473.93, -32.7918, 7465.7, -153.019, 7479.65, 87.2334, 254.288, -40.2221, 277.78, -160.158, 250.459, 80.8537
114, 0.00000, 7464.97, -32.9093, 7456.32, -153.148, 7470.33, 87.1105, 265.687, -41.0405, 290.286, -160.939, 262.319, 79.9514
115, 0.00000, 7461.67, -32.9524, 7452.89, -153.195, 7466.8, 87.0642, 269.868, -41.3254, 294.875, -161.211, 266.818, 79.6285
116, 0.00000, 7468.5, -32.8618, 7460.14, -153.096, 7473.33, 87.1505, 261.056, -40.7204, 285.26, -160.634, 258.527, 80.2316
117, 0.00000, 7479.7, -32.7141, 7471.94, -152.935, 7484.45, 87.2972, 246.744, -39.6449, 269.621, -159.613, 244.427, 81.3465
118, 0.00000, 7483.83, -32.6599, 7476.26, -152.877, 7488.56, 87.3514, 241.501, -39.2173, 263.912, -159.21, 239.238, 81.7904
119, 0.00000, 7499.52, -32.4538, 7492.6, -152.654, 7504.11, 87.5571, 221.664, -37.4267, 242.37, -157.535, 219.644, 83.6439
120, 0.00000, 7517.92, -32.2129, 7511.84, -152.391, 7522.3, 87.7974, 198.718, -34.8986, 217.261, -155.168, 197.021, 86.2469
121, 0.00000, 7545.39, -31.8549, 7540.36, -152.003, 7549.58, 88.158, 165.398, -29.8966, 180.75, -150.525, 163.904, 91.4228
122, 0.00000, 7564.99, -31.6012, 7560.39, -151.73, 7569.32, 88.4157, 142.696, -24.988, 155.954, -146.04, 141.225, 96.6098
123, 0.00000, 7579.14, -31.421, 7574.84, -151.532, 7585.77, 88.6063, 127.287, -20.4531, 138.806, -141.847, 125.475, 102.199
124, 0.00000, 7587.29, -31.3222, 7582.9, -151.425, 7595.47, 88.7126, 119.245, -17.3697, 129.854, -139.062, 117.363, 106.12
125, 0.00000, 7595.19, -31.239, 7589.9, -151.339, 7602.26, 88.7922, 112.918, -14.0439, 122.957, -136.407, 111.662, 109.225
126, 0.00000, 7602.03, -31.1765, 7595.46, -151.277, 7607.87, 88.8522, 108.579, -10.9806, 118.138, -134.141, 107.716, 111.946
127, 0.00000, 7599.12, -31.2056, 7592.99, -151.307, 7605.87, 88.8255, 110.59, -12.3531, 120.493, -135.191, 109.54, 110.89
128, 0.00000, 7593.3, -31.261, 7588.01, -151.364, 7601.05, 88.7736, 114.558, -14.9064, 124.94, -137.161, 113.019, 108.612
129, 0.00000, 7587.73, -31.3191, 7582.98, -151.424, 7596.47, 88.7211, 118.995, -17.2302, 129.811, -139.032, 116.742, 106.55
130, 0.00000, 7571.58, -31.5187, 7566.74, -151.641, 7577.77, 88.5119, 135.537, -23.0355, 148.237, -144.301, 133.085, 99.3311
131, 0.00000, 7552.45, -31.7647, 7547.17, -151.909, 7557.13, 88.2579, 157.218, -28.3111, 172.152, -149.131, 154.921, 93.2425
132, 0.00000, 7528.59, -32.0757, 7522.44, -152.246, 7533.5, 87.9452, 185.817, -33.1798, 203.528, -153.619, 183.231, 88.1651
133, 0.00000, 7508.82, -32.3341, 7501.9, -152.526, 7513.85, 87.6854, 210.212, -36.2252, 230.174, -156.443, 207.46, 84.9797
134, 0.00000, 7490.65, -32.5717, 7483.06, -152.783, 7495.88, 87.4481, 232.996, -38.4839, 254.865, -158.54, 229.939, 82.63
135, 0.00000, 7487.81, -32.609, 7480.11, -152.823, 7493.05, 87.4107, 236.588, -38.7982, 258.758, -158.834, 233.508, 82.3001
136, 0.00000, 7486.85, -32.6217, 7479.07, -152.837, 7492, 87.3969, 237.805, -38.9031, 260.144, -158.937, 234.832, 82.1799
137, 0.00000, 7490.81, -32.5694, 7483.24, -152.78, 7495.92, 87.4488, 232.772, -38.4647, 254.636, -158.523, 229.888, 82.6348
138, 0.00000, 7490.78, -32.5697, 7483.27, -152.78, 7495.89, 87.4483, 232.803, -38.4668, 254.608, -158.52, 229.939, 82.6309
139, 0.00000, 7490.26, -32.5763, 7482.87, -152.786, 7495.38, 87.4414, 233.443, -38.5245, 255.127, -158.559, 230.601, 82.5687
140, 0.00000, 7502.54, -32.4146, 7495.76, -152.61, 7507.41, 87.6005, 217.921, -37.0511, 238.187, -157.175, 215.501, 84.0783
141, 0.00000, 7512.46, -32.2848, 7506.08, -152.47, 7517.1, 87.7287, 205.535, -35.7088, 224.73, -155.926, 203.44, 85.4489
142, 0.00000, 7520.14, -32.1843, 7514.06, -152.361, 7524.6, 87.8278, 196.015, -34.5578, 214.377, -154.859, 194.175, 86.6202
143, 0.00000, 7527.78, -32.0841, 7522.09, -152.252, 7532.03, 87.9259, 186.604, -33.2996, 204.029, -153.682, 185.087, 87.8873
144, 0.00000, 7542.17, -31.8964, 7537.01, -152.049, 7546.15, 88.1129, 169.194, -30.5752, 185.005, -151.165, 167.993, 90.6645
145, 0.00000, 7561.24, -31.649, 7556.74, -151.78, 7565.18, 88.3631, 146.889, -26.0269, 160.424, -146.961, 145.781, 95.3855
146, 0.00000, 7578.45, -31.4296, 7574.17, -151.542, 7584.8, 88.5954, 128.006, -20.6945, 139.596, -142.066, 126.35, 101.83
147, 0.00000, 7592.16, -31.2687, 7587.55, -151.368, 7599.74, 88.7626, 115.117, -15.3417, 125.226, -137.327, 113.749, 108.031
148, 0.00000, 7605.05, -31.1465, 7598.12, -151.245, 7609.99, 88.8783, 106.578, -9.50446, 115.749, -132.974, 106.017, 113.063
149, 0.00000, 7612.04, -31.0825, 7604.49, -151.179, 7614.68, 88.936, 102.703, -5.98225, 111.02, -130.088, 102.377, 115.66
150, 0.00000, 7614.78, -31.0468, 7608.28, -151.137, 7617.43, 88.9726, 100.438, -4.35003, 108.138, -128.18, 100.051, 117.335
151, 0.00000, 7614.92, -31.045, 7608.44, -151.136, 7617.71, 88.9763, 100.328, -4.27421, 108.027, -128.097, 99.8049, 117.517
152, 0.00000, 7612.8, -31.0746, 7605.56, -151.17, 7615.76, 88.9496, 102.235, -5.59309, 110.405, -129.578, 101.491, 116.306
153, 0.00000, 7595.71, -31.2392, 7590.03, -151.34, 7603.95, 88.8021, 112.983, -13.9107, 123.089, -136.362, 111.078, 109.952
154, 0.00000, 7578.34, -31.433, 7573.72, -151.545, 7586.06, 88.6056, 128.291, -20.7877, 140.005, -142.187, 125.505, 102.308
155, 0.00000, 7567.8, -31.567, 7562.97, -151.693, 7573.58, 88.4626, 139.708, -24.2014, 152.746, -145.343, 137.192, 97.9445
156, 0.00000, 7558.87, -31.6814, 7553.85, -151.818, 7563.61, 88.3424, 149.768, -26.6987, 163.874, -147.636, 147.498, 94.9606
157, 0.00000, 7551.8, -31.773, 7546.55, -151.917, 7556.52, 88.2498, 157.971, -28.4648, 172.922, -149.262, 155.639, 93.088
158, 0.00000, 7546.52, -31.8419, 7541.12, -151.991, 7551.42, 88.1824, 164.219, -29.677, 179.701, -150.364, 161.637, 91.8581
159, 0.00000, 7544.72, -31.8654, 7539.25, -152.016, 7549.74, 88.1601, 166.365, -30.0706, 182.041, -150.724, 163.63, 91.4709
160, 0.00000, 7532.87, -32.0198, 7526.98, -152.183, 7537.98, 88.0045, 180.612, -32.4207, 197.653, -152.894, 177.763, 89.0061
