hour, t(sec), V1, VAngle1, V2, VAngle2, V3, VAngle3, I1, IAngle1, I2, IAngle2, I3, IAngle3
1, 0.00000, 7559.11, -31.6771, 7554.48, -151.81, 7563.4, 88.3395, 149.38, -26.6124, 163.146, -147.496, 147.794, 94.8894
2, 0.00000, 7573.2, -31.4966, 7568.7, -151.615, 7578.86, 88.5282, 133.659, -22.4858, 145.931, -143.74, 131.756, 99.7018
3, 0.00000, 7589.01, -31.3027, 7584.57, -151.403, 7597.44, 88.7346, 117.717, -16.6781, 128.116, -138.441, 115.745, 106.986
4, 0.00000, 7599.68, -31.1938, 7594.2, -151.29, 7607.08, 88.8419, 109.68, -12.039, 119.181, -134.639, 108.349, 111.536
5, 0.00000, 7608.1, -31.1184, 7600.84, -151.217, 7612.48, 88.9084, 104.819, -8.01333, 113.669, -131.756, 104.071, 114.432
6, 0.00000, 7613.35, -31.067, 7605.97, -151.162, 7616.12, 88.9558, 101.731, -5.25063, 109.818, -129.336, 101.081, 116.555
7, 0.00000, 7615.13, -31.0423, 7608.81, -151.131, 7618.22, 88.9831, 100.159, -4.15407, 107.693, -127.882, 99.3628, 117.843
8, 0.00000, 7611.37, -31.0932, 7603.92, -151.188, 7614.89, 88.9373, 103.453, -6.44401, 111.736, -130.371, 102.246, 115.782
9, 0.00000, 7586.69, -31.3307, 7582.31, -151.43, 7596.75, 88.7248, 119.943, -17.6847, 130.342, -139.227, 116.37, 106.685
10, 0.00000, 7566.74, -31.5814, 7562.04, -151.704, 7573.32, 88.461, 140.999, -24.5441, 153.758, -145.564, 137.233, 97.866
11, 0.00000, 7549.88, -31.7989, 7544.79, -151.939, 7555.69, 88.2382, 160.35, -28.939, 174.988, -149.606, 156.579, 92.8802
12, 0.00000, 7528.66, -32.0751, 7522.84, -152.238, 7534.73, 87.9609, 185.808, -33.1844, 202.842, -153.541, 181.695, 88.3883
13, 0.00000, 7501.89, -32.4251, 7495.03, -152.618, 7508.11, 87.6089, 218.959, -37.1528, 238.985, -157.243, 214.587, 84.1747
14, 0.00000, 7493.57, -32.5333, 7486.32, -152.736, 7499.66, 87.4981, 229.342, -38.1616, 250.367, -158.199, 225.116, 83.0834
15, 0.00000, 7487.1, -32.618, 7479.56, -152.829, 7492.95, 87.4094, 237.491, -38.8832, 259.335, -158.885, 233.592, 82.2844
16, 0.00000, 7471.8, -32.8191, 7463.64, -153.047, 7477.36, 87.2032, 256.941, -40.422, 280.52, -160.336, 253.38, 80.6228
17, 0.00000, 7479.27, -32.7213, 7471.39, -152.942, 7484.67, 87.2995, 247.449, -39.6936, 270.314, -159.654, 244.144, 81.3726
18, 0.00000, 7504.01, -32.3962, 7497.11, -152.591, 7509.14, 87.6233, 216.159, -36.867, 236.384, -157.015, 213.312, 84.3149
19, 0.00000, 7520.59, -32.1792, 7514.37, -152.356, 7525.48, 87.8394, 195.542, -34.4962, 213.916, -154.809, 193.051, 86.768
20, 0.00000, 7530.26, -32.0539, 7524.46, -152.22, 7534.92, 87.9632, 183.777, -32.8764, 201.065, -153.302, 181.593, 88.4232
21, 0.00000, 7538.1, -31.9513, 7532.64, -152.109, 7542.54, 88.0641, 174.245, -31.409, 190.615, -151.943, 172.373, 89.9099
22, 0.00000, 7543.72, -31.8778, 7538.45, -152.03, 7548.01, 88.1367, 167.484, -30.2601, 183.239, -150.888, 165.805, 91.0761
23, 0.00000, 7552.07, -31.7694, 7547.23, -151.911, 7556.26, 88.2452, 157.643, -28.3789, 172.277, -149.124, 156.102, 93.012
24, 0.00000, 7567.98, -31.5625, 7563.61, -151.686, 7572.58, 88.4552, 139.329, -24.1027, 152.051, -145.186, 137.867, 97.6154
25, 0.00000, 7585.22, -31.3465, 7580.99, -151.45, 7593.08, 88.6851, 121.186, -18.182, 131.899, -139.757, 119.432, 105.091
26, 0.00000, 7604.56, -31.1524, 7597.65, -151.251, 7609.24, 88.8708, 106.992, -9.74829, 116.187, -133.188, 106.489, 112.679
27, 0.00000, 7615.84, -31.0317, 7609.84, -151.119, 7618.26, 88.9839, 99.4837, -3.65804, 106.907, -127.362, 99.3556, 117.849
28, 0.00000, 7620.28, -30.9705, 7615.46, -151.05, 7622.71, 89.0454, 95.7497, -0.719983, 102.335, -124.158, 95.6592, 120.825
29, 0.00000, 7621.22, -30.9581, 7616.24, -151.038, 7623.75, 89.06, 95.0172, -0.0922147, 101.583, -123.659, 94.8174, 121.576
30, 0.00000, 7621.19, -30.9583, 7616.24, -151.038, 7623.72, 89.0598, 95.0236, -0.105257, 101.568, -123.655, 94.8223, 121.56
31, 0.00000, 7613.55, -31.0637, 7606.54, -151.159, 7616.08, 88.9541, 101.514, -5.10432, 109.602, -129.095, 101.224, 116.493
32, 0.00000, 7602.4, -31.1792, 7595.21, -151.281, 7607.84, 88.8502, 108.867, -10.883, 118.471, -134.268, 107.891, 111.906
33, 0.00000, 7604.93, -31.1491, 7598.18, -151.245, 7610.69, 88.8847, 106.784, -9.6126, 115.788, -132.932, 105.578, 113.425
34, 0.00000, 7593.07, -31.2636, 7588.33, -151.359, 7602.2, 88.783, 114.785, -15.0426, 124.613, -137.003, 112.338, 109.117
35, 0.00000, 7584.41, -31.3576, 7580.18, -151.458, 7593.93, 88.6913, 122.102, -18.5603, 132.61, -139.999, 118.903, 105.443
36, 0.00000, 7569.53, -31.5447, 7565.21, -151.661, 7576.17, 88.4931, 137.815, -23.6849, 149.986, -144.712, 134.594, 98.7787
37, 0.00000, 7545.97, -31.8485, 7541.02, -151.992, 7551.39, 88.1814, 164.861, -29.7987, 179.761, -150.372, 161.694, 91.8396
38, 0.00000, 7526.35, -32.1041, 7520.7, -152.269, 7531.93, 87.9239, 188.523, -33.5667, 205.657, -153.876, 185.164, 87.8717
39, 0.00000, 7512.4, -32.2862, 7506.22, -152.466, 7517.99, 87.7396, 205.713, -35.7286, 224.428, -155.895, 202.338, 85.5803
40, 0.00000, 7501.46, -32.4291, 7494.94, -152.62, 7507.06, 87.5951, 219.347, -37.1947, 239.179, -157.259, 215.958, 84.0289
41, 0.00000, 7491.09, -32.5642, 7484.06, -152.768, 7496.53, 87.4568, 232.312, -38.4346, 253.42, -158.439, 229.121, 82.6988
42, 0.00000, 7489.22, -32.5893, 7482.02, -152.797, 7494.41, 87.4284, 234.706, -38.6393, 256.224, -158.645, 231.838, 82.4513
43, 0.00000, 7481.99, -32.6839, 7474.44, -152.9, 7487.06, 87.3317, 243.839, -39.4146, 266.225, -159.381, 241.097, 81.6243
44, 0.00000, 7486.28, -32.6282, 7478.9, -152.841, 7491.14, 87.385, 238.437, -38.9564, 260.439, -158.953, 236.004, 82.078
45, 0.00000, 7500.29, -32.4441, 7493.5, -152.641, 7505.09, 87.5697, 220.737, -37.3326, 241.177, -157.431, 218.427, 83.7712
46, 0.00000, 7508.43, -32.3383, 7501.96, -152.527, 7513.2, 87.6761, 210.623, -36.2685, 230.19, -156.436, 208.367, 84.8797
47, 0.00000, 7524.14, -32.1319, 7518.37, -152.302, 7528.7, 87.8818, 191.094, -33.9161, 208.797, -154.239, 189.145, 87.3047
48, 0.00000, 7543.12, -31.8845, 7538.02, -152.035, 7547.39, 88.1291, 168.105, -30.3837, 183.694, -150.971, 166.5, 90.9351
49, 0.00000, 7567.96, -31.5629, 7563.55, -151.687, 7572.6, 88.4544, 139.36, -24.1106, 152.128, -145.203, 137.94, 97.6205
50, 0.00000, 7583.26, -31.37, 7579.07, -151.475, 7590.6, 88.6594, 123.087, -18.9295, 134.011, -140.43, 121.357, 104.081
51, 0.00000, 7600.53, -31.1878, 7594.76, -151.284, 7606.95, 88.8411, 109.308, -11.6419, 118.707, -134.422, 108.438, 111.462
52, 0.00000, 7614.73, -31.0472, 7608.35, -151.137, 7617.26, 88.9701, 100.461, -4.36398, 108.1, -128.151, 100.215, 117.214
53, 0.00000, 7619.87, -30.9761, 7615.02, -151.056, 7622.38, 89.0408, 96.087, -1.00418, 102.718, -124.423, 95.9218, 120.597
54, 0.00000, 7619.21, -30.985, 7614.31, -151.066, 7621.71, 89.0315, 96.6185, -1.44829, 103.372, -124.861, 96.4625, 120.134
55, 0.00000, 7613.85, -31.0593, 7607.37, -151.151, 7616.48, 88.9591, 101.242, -4.91487, 109.11, -128.692, 100.898, 116.723
56, 0.00000, 7600.89, -31.1913, 7594.49, -151.29, 7607.22, 88.841, 109.665, -11.5702, 119.164, -134.561, 108.501, 111.562
57, 0.00000, 7605.79, -31.1388, 7599.26, -151.233, 7611.4, 88.8937, 106.087, -9.15812, 114.848, -132.442, 104.994, 113.81
58, 0.00000, 7604.04, -31.162, 7597.41, -151.257, 7609.97, 88.8737, 107.728, -10.1052, 116.724, -133.301, 106.332, 112.993
59, 0.00000, 7588.49, -31.3091, 7584.39, -151.405, 7597.84, 88.7375, 118.24, -16.9175, 128.238, -138.481, 115.497, 107.15
60, 0.00000, 7582.94, -31.3747, 7578.93, -151.475, 7592.06, 88.6714, 123.498, -19.1079, 134.008, -140.439, 120.402, 104.661
61, 0.00000, 7576.34, -31.4579, 7572.21, -151.566, 7584.26, 88.5843, 130.404, -21.4797, 141.704, -142.648, 127.171, 101.613
62, 0.00000, 7566.81, -31.5787, 7562.54, -151.698, 7572.57, 88.4532, 140.766, -24.4872, 153.219, -145.445, 137.951, 97.6112
63, 0.00000, 7557.54, -31.698, 7553.03, -151.828, 7562.69, 88.33, 151.275, -27.0427, 164.838, -147.817, 148.561, 94.6921
64, 0.00000, 7546.29, -31.844, 7541.31, -151.988, 7551.35, 88.181, 164.438, -29.7211, 179.447, -150.324, 161.756, 91.8328
65, 0.00000, 7534.7, -31.9949, 7529.25, -152.153, 7539.69, 88.0269, 178.307, -32.0724, 194.75, -152.519, 175.731, 89.3327
66, 0.00000, 7523.22, -32.1442, 7517.37, -152.315, 7528, 87.8724, 192.254, -34.07, 210.057, -154.382, 189.998, 87.1863
67, 0.00000, 7514.47, -32.2577, 7508.24, -152.439, 7519.23, 87.7573, 202.976, -35.4209, 221.801, -155.648, 200.745, 85.7685
68, 0.00000, 7516.44, -32.2326, 7510.4, -152.411, 7521.06, 87.7805, 200.595, -35.1225, 219.143, -155.357, 198.581, 86.0522
69, 0.00000, 7529.43, -32.0628, 7523.84, -152.228, 7533.75, 87.9487, 184.608, -33.0147, 201.767, -153.408, 182.979, 88.1996
70, 0.00000, 7536.19, -31.9755, 7530.84, -152.134, 7540.47, 88.0367, 176.484, -31.7727, 192.912, -152.257, 174.895, 89.4854
71, 0.00000, 7543.52, -31.8801, 7538.44, -152.03, 7547.7, 88.1323, 167.701, -30.2958, 183.296, -150.891, 166.218, 91.0039
72, 0.00000, 7561.33, -31.648, 7556.79, -151.779, 7565.44, 88.3658, 146.806, -26.0069, 160.344, -146.945, 145.532, 95.4613
73, 0.00000, 7578.73, -31.4259, 7574.61, -151.536, 7585.36, 88.6009, 127.701, -20.5942, 139.084, -141.92, 125.914, 102.034
74, 0.00000, 7599.63, -31.1933, 7594.14, -151.29, 7606.76, 88.8383, 109.624, -12.0365, 119.183, -134.67, 108.608, 111.369
75, 0.00000, 7615.42, -31.0377, 7609.15, -151.128, 7617.94, 88.9796, 99.8554, -3.93415, 107.479, -127.733, 99.6157, 117.656
76, 0.00000, 7620.78, -30.9639, 7615.84, -151.044, 7623.35, 89.0545, 95.3577, -0.392145, 101.95, -123.906, 95.123, 121.295
77, 0.00000, 7625.56, -30.8983, 7621.04, -150.972, 7628.09, 89.1201, 91.6567, 3.05237, 97.4405, -120.511, 91.555, 124.772
78, 0.00000, 7627.3, -30.8744, 7622.98, -150.945, 7629.82, 89.1445, 90.3893, 4.37303, 95.8755, -119.173, 90.2995, 126.119
79, 0.00000, 7626.94, -30.8793, 7622.58, -150.951, 7629.46, 89.1396, 90.6434, 4.0954, 96.2014, -119.456, 90.5479, 125.84
80, 0.00000, 7625.04, -30.9056, 7620.56, -150.978, 7627.9, 89.1172, 92.0621, 2.64517, 97.7905, -120.81, 91.6887, 124.626
81, 0.00000, 7614.45, -31.0513, 7608.4, -151.139, 7617.57, 88.9738, 100.754, -4.57478, 108.31, -128.143, 99.9409, 117.412
82, 0.00000, 7584.21, -31.3592, 7580.06, -151.46, 7593.33, 88.6858, 122.222, -18.6204, 132.822, -140.052, 119.324, 105.194
83, 0.00000, 7560.73, -31.657, 7556.21, -151.785, 7565.94, 88.3716, 147.63, -26.2038, 160.929, -147.062, 144.944, 95.6102
84, 0.00000, 7535.26, -31.988, 7529.86, -152.144, 7540.68, 88.0397, 177.684, -31.975, 193.914, -152.409, 174.521, 89.5305
85, 0.00000, 7518.22, -32.2103, 7512.19, -152.385, 7523.77, 87.8161, 198.516, -34.8708, 216.668, -155.104, 195.171, 86.4858
86, 0.00000, 7504.78, -32.3861, 7498.29, -152.574, 7510.52, 87.6409, 215.232, -36.7718, 234.771, -156.87, 211.616, 84.501
87, 0.00000, 7491.48, -32.5604, 7484.44, -152.763, 7497.29, 87.466, 231.947, -38.3928, 252.964, -158.393, 228.198, 82.7931
88, 0.00000, 7482.15, -32.6822, 7474.67, -152.896, 7487.9, 87.3426, 243.703, -39.4056, 265.807, -159.355, 240.002, 81.7145
89, 0.00000, 7480.12, -32.7093, 7472.5, -152.926, 7485.7, 87.3133, 246.308, -39.6104, 268.758, -159.555, 242.816, 81.4786
90, 0.00000, 7474.97, -32.7765, 7467.05, -153.001, 7480.19, 87.2409, 252.801, -40.1166, 276, -160.046, 249.796, 80.9044
91, 0.00000, 7480.34, -32.7065, 7472.68, -152.925, 7485.51, 87.3106, 246.019, -39.5819, 268.627, -159.538, 243.104, 81.4601
92, 0.00000, 7486.52, -32.6252, 7479.2, -152.837, 7491.47, 87.3893, 238.154, -38.9312, 260.057, -158.923, 235.592, 82.1155
93, 0.00000, 7501.68, -32.4259, 7494.93, -152.622, 7506.45, 87.5876, 218.998, -37.1583, 239.311, -157.27, 216.736, 83.949
94, 0.00000, 7515.33, -32.2472, 7509.09, -152.429, 7519.79, 87.7642, 201.958, -35.2881, 220.834, -155.535, 200.123, 85.857
95, 0.00000, 7531.83, -32.0314, 7526.31, -152.194, 7536.14, 87.9802, 181.685, -32.5862, 198.598, -153.014, 180.07, 88.6436
96, 0.00000, 7546.86, -31.8356, 7541.88, -151.982, 7550.95, 88.1761, 163.639, -29.5715, 178.845, -150.228, 162.281, 91.7351
97, 0.00000, 7568.76, -31.5525, 7564.39, -151.675, 7573.41, 88.4641, 138.459, -23.8648, 151.118, -144.974, 137.124, 97.8766
98, 0.00000, 7587.69, -31.3177, 7583.27, -151.42, 7595.61, 88.7147, 118.882, -17.2018, 129.458, -138.933, 117.213, 106.182
99, 0.00000, 7606.06, -31.1347, 7599.36, -151.232, 7611.05, 88.8901, 105.776, -8.98211, 114.775, -132.419, 105.253, 113.624
100, 0.00000, 7616.74, -31.0195, 7610.91, -151.106, 7619.27, 88.9979, 98.7192, -3.09356, 106.04, -126.774, 98.4825, 118.516
101, 0.00000, 7621.95, -30.9479, 7617.08, -151.026, 7624.44, 89.0699, 94.4249, 0.425305, 100.818, -123.123, 94.2569, 122.074
102, 0.00000, 7623.13, -30.9319, 7618.34, -151.008, 7625.79, 89.0876, 93.5097, 1.25726, 99.6708, -122.293, 93.2921, 123.036
103, 0.00000, 7619.91, -30.976, 7614.86, -151.057, 7622.65, 89.0446, 96.0756, -1.0034, 102.806, -124.503, 95.6822, 120.802
104, 0.00000, 7613.72, -31.0618, 7607.1, -151.153, 7616.87, 88.9644, 101.414, -5.03866, 109.31, -128.808, 100.531, 116.985
105, 0.00000, 7614.4, -31.0531, 7607.69, -151.144, 7617.93, 88.979, 100.856, -4.65165, 108.651, -128.462, 99.5958, 117.678
106, 0.00000, 7609.76, -31.1153, 7601.27, -151.217, 7613.6, 88.921, 104.902, -7.39779, 113.764, -131.608, 103.269, 115.061
107, 0.00000, 7582.66, -31.3801, 7578.04, -151.485, 7592.42, 88.6743, 123.925, -19.2586, 134.979, -140.731, 120.141, 104.828
108, 0.00000, 7557.51, -31.6999, 7552.49, -151.835, 7563.07, 88.3352, 151.435, -27.0748, 165.457, -147.934, 148.051, 94.8147
109, 0.00000, 7533.91, -32.0068, 7528.07, -152.167, 7539.69, 88.0268, 179.421, -32.2412, 196.165, -152.705, 175.656, 89.3426
110, 0.00000, 7509.75, -32.3222, 7502.98, -152.51, 7515.61, 87.7085, 209.121, -36.1102, 228.625, -156.303, 205.215, 85.2346
111, 0.00000, 7495.91, -32.5033, 7488.62, -152.705, 7501.81, 87.5261, 226.441, -37.883, 247.437, -157.955, 222.454, 83.3554
112, 0.00000, 7481.55, -32.6917, 7473.67, -152.909, 7487.48, 87.3367, 244.605, -39.4701, 267.166, -159.443, 240.524, 81.6745
113, 0.00000, 7473.89, -32.7917, 7465.65, -153.019, 7479.61, 87.2334, 254.282, -40.2283, 277.772, -160.166, 250.462, 80.8479
114, 0.00000, 7464.93, -32.9092, 7456.27, -153.147, 7470.29, 87.1105, 265.682, -41.0468, 290.277, -160.946, 262.324, 79.9458
115, 0.00000, 7461.65, -32.9524, 7452.87, -153.195, 7466.79, 87.0641, 269.866, -41.3278, 294.872, -161.214, 266.819, 79.6264
116, 0.00000, 7468.52, -32.8619, 7460.17, -153.096, 7473.36, 87.1504, 261.062, -40.7159, 285.268, -160.628, 258.522, 80.2351
117, 0.00000, 7479.71, -32.7142, 7471.95, -152.935, 7484.46, 87.2972, 246.745, -39.6426, 269.616, -159.611, 244.425, 81.3482
118, 0.00000, 7483.85, -32.66, 7476.29, -152.877, 7488.58, 87.3513, 241.506, -39.2139, 263.918, -159.206, 239.237, 81.7934
119, 0.00000, 7499.54, -32.4539, 7492.62, -152.654, 7504.13, 87.5571, 221.665, -37.4236, 242.363, -157.531, 219.642, 83.6465
120, 0.00000, 7517.93, -32.2129, 7511.86, -152.391, 7522.31, 87.7974, 198.718, -34.8953, 217.252, -155.164, 197.019, 86.2498
121, 0.00000, 7545.4, -31.8548, 7540.37, -152.003, 7549.59, 88.1581, 165.387, -29.8952, 180.732, -150.522, 163.888, 91.4238
122, 0.00000, 7565, -31.6012, 7560.4, -151.73, 7569.35, 88.4158, 142.687, -24.9858, 155.94, -146.037, 141.208, 96.618
123, 0.00000, 7579.14, -31.421, 7574.86, -151.532, 7585.77, 88.6063, 127.287, -20.4537, 138.8, -141.842, 125.474, 102.199
124, 0.00000, 7587.29, -31.3222, 7582.9, -151.425, 7595.47, 88.7125, 119.245, -17.3703, 129.854, -139.063, 117.363, 106.119
125, 0.00000, 7595.19, -31.239, 7589.9, -151.339, 7602.26, 88.7922, 112.918, -14.0442, 122.956, -136.407, 111.662, 109.225
126, 0.00000, 7602.03, -31.1765, 7595.45, -151.277, 7607.87, 88.8522, 108.58, -10.9811, 118.138, -134.141, 107.715, 111.945
127, 0.00000, 7599.12, -31.2056, 7592.99, -151.307, 7605.86, 88.8254, 110.59, -12.3537, 120.492, -135.192, 109.54, 110.889
128, 0.00000, 7593.3, -31.261, 7587.99, -151.364, 7601.04, 88.7736, 114.558, -14.907, 124.945, -137.169, 113.018, 108.611
129, 0.00000, 7587.73, -31.3191, 7582.97, -151.424, 7596.47, 88.7211, 118.995, -17.2309, 129.811, -139.032, 116.741, 106.549
130, 0.00000, 7571.58, -31.5187, 7566.73, -151.641, 7577.77, 88.5119, 135.539, -23.0362, 148.238, -144.301, 133.081, 99.3288
131, 0.00000, 7552.45, -31.7648, 7547.17, -151.909, 7557.12, 88.2579, 157.219, -28.3115, 172.153, -149.131, 154.922, 93.2418
132, 0.00000, 7528.56, -32.0758, 7522.41, -152.246, 7533.48, 87.9452, 185.817, -33.1846, 203.538, -153.625, 183.234, 88.1608
133, 0.00000, 7508.8, -32.334, 7501.87, -152.526, 7513.83, 87.6854, 210.211, -36.2299, 230.181, -156.449, 207.461, 84.9756
134, 0.00000, 7490.65, -32.5718, 7483.05, -152.783, 7495.87, 87.448, 233.001, -38.484, 254.874, -158.541, 229.947, 82.6301
135, 0.00000, 7487.8, -32.609, 7480.09, -152.823, 7493.03, 87.4107, 236.585, -38.8012, 258.754, -158.837, 233.509, 82.2972
136, 0.00000, 7486.84, -32.6217, 7479.06, -152.837, 7491.99, 87.3969, 237.804, -38.9043, 260.143, -158.938, 234.833, 82.1786
137, 0.00000, 7490.83, -32.5695, 7483.26, -152.78, 7495.94, 87.4487, 232.777, -38.461, 254.642, -158.519, 229.887, 82.6382
138, 0.00000, 7490.78, -32.5698, 7483.26, -152.78, 7495.89, 87.4482, 232.804, -38.4671, 254.608, -158.52, 229.938, 82.6305
139, 0.00000, 7490.25, -32.5763, 7482.87, -152.786, 7495.38, 87.4413, 233.443, -38.5252, 255.127, -158.56, 230.601, 82.5679
140, 0.00000, 7502.55, -32.4147, 7495.77, -152.61, 7507.42, 87.6005, 217.922, -37.0488, 238.182, -157.172, 215.5, 84.0802
141, 0.00000, 7512.52, -32.285, 7506.16, -152.47, 7517.17, 87.7285, 205.55, -35.696, 224.751, -155.91, 203.442, 85.4613
142, 0.00000, 7520.19, -32.1845, 7514.13, -152.361, 7524.66, 87.8277, 196.028, -34.5469, 214.394, -154.845, 194.177, 86.6309
143, 0.00000, 7527.84, -32.0844, 7522.17, -152.252, 7532.08, 87.9258, 186.619, -33.2877, 204.048, -153.667, 185.091, 87.899
144, 0.00000, 7542.18, -31.8965, 7537.02, -152.049, 7546.16, 88.1129, 169.193, -30.5736, 184.998, -151.163, 167.991, 90.6661
145, 0.00000, 7561.25, -31.6489, 7556.75, -151.78, 7565.26, 88.3635, 146.881, -26.025, 160.411, -146.958, 145.745, 95.4084
146, 0.00000, 7578.44, -31.4297, 7574.17, -151.542, 7584.79, 88.5954, 128.005, -20.6951, 139.595, -142.067, 126.351, 101.829
147, 0.00000, 7592.15, -31.2687, 7587.55, -151.368, 7599.74, 88.7625, 115.117, -15.3422, 125.226, -137.327, 113.749, 108.03
148, 0.00000, 7605.05, -31.1465, 7598.11, -151.245, 7609.98, 88.8782, 106.58, -9.50456, 115.748, -132.974, 106.016, 113.063
149, 0.00000, 7612.03, -31.0826, 7604.48, -151.18, 7614.67, 88.936, 102.703, -5.98282, 111.019, -130.089, 102.376, 115.66
150, 0.00000, 7614.77, -31.0468, 7608.28, -151.137, 7617.43, 88.9725, 100.437, -4.35079, 108.139, -128.181, 100.05, 117.335
151, 0.00000, 7614.92, -31.0451, 7608.43, -151.136, 7617.71, 88.9763, 100.327, -4.27484, 108.027, -128.098, 99.8042, 117.516
152, 0.00000, 7612.8, -31.0747, 7605.34, -151.171, 7615.74, 88.9496, 102.235, -5.59321, 110.435, -129.667, 101.491, 116.305
153, 0.00000, 7595.71, -31.2392, 7590.02, -151.34, 7603.95, 88.8021, 112.982, -13.9114, 123.089, -136.363, 111.078, 109.952
154, 0.00000, 7578.33, -31.4331, 7573.72, -151.546, 7586.06, 88.6056, 128.292, -20.7884, 140.005, -142.187, 125.502, 102.307
155, 0.00000, 7567.8, -31.567, 7562.96, -151.693, 7573.58, 88.4625, 139.71, -24.2019, 152.746, -145.343, 137.191, 97.9432
156, 0.00000, 7558.87, -31.6815, 7553.85, -151.818, 7563.61, 88.3424, 149.769, -26.6991, 163.874, -147.636, 147.498, 94.9599
157, 0.00000, 7551.8, -31.7731, 7546.54, -151.917, 7556.51, 88.2497, 157.974, -28.4659, 172.927, -149.263, 155.643, 93.0869
158, 0.00000, 7546.47, -31.8418, 7541.06, -151.991, 7551.38, 88.1824, 164.206, -29.688, 179.685, -150.378, 161.63, 91.8468
159, 0.00000, 7544.7, -31.8653, 7539.23, -152.016, 7549.72, 88.1601, 166.361, -30.0745, 182.036, -150.729, 163.629, 91.467
160, 0.00000, 7532.85, -32.0198, 7526.96, -152.183, 7537.97, 88.0044, 180.612, -32.4231, 197.658, -152.897, 177.764, 89.0039
